 (1789002004.899082)  can0  601   [8]  40 17 10 00 00 00 00 00
 (1789002004.899416)  can0  581   [8]  4B 17 10 00 00 00 00 00
 (1789002004.900979)  can0  601   [8]  2B 17 10 00 F4 01 00 00
 (1789002004.901343)  can0  581   [8]  60 17 10 00 00 00 00 00
 (1789002004.902977)  can0  601   [8]  40 17 10 00 00 00 00 00
 (1789002004.903331)  can0  581   [8]  4B 17 10 00 F4 01 00 00
 (1789002005.150780)  can0  701   [1]  7F
 (1789002005.151993)  can0  601   [8]  40 60 60 00 00 00 00 00
 (1789002005.152330)  can0  581   [8]  4F 60 60 00 03 00 00 00
 (1789002005.153978)  can0  601   [8]  40 61 60 00 00 00 00 00
 (1789002005.154324)  can0  581   [8]  4F 61 60 00 03 00 00 00
 (1789002005.155980)  can0  601   [8]  40 FF 60 01 00 00 00 00
 (1789002005.156323)  can0  581   [8]  43 FF 60 01 00 00 00 00
 (1789002005.157981)  can0  601   [8]  40 FF 60 02 00 00 00 00
 (1789002005.158320)  can0  581   [8]  43 FF 60 02 00 00 00 00
 (1789002005.159980)  can0  601   [8]  40 3F 60 00 00 00 00 00
 (1789002005.160314)  can0  581   [8]  43 3F 60 00 00 00 00 00
 (1789002005.161980)  can0  601   [8]  40 6C 60 01 00 00 00 00
 (1789002005.162305)  can0  581   [8]  43 6C 60 01 00 00 00 00
 (1789002005.163975)  can0  601   [8]  40 6C 60 02 00 00 00 00
 (1789002005.164302)  can0  581   [8]  43 6C 60 02 00 00 00 00
 (1789002005.165980)  can0  601   [8]  40 6C 60 03 00 00 00 00
 (1789002005.166296)  can0  581   [8]  43 6C 60 03 00 00 00 00
 (1789002005.167984)  can0  601   [8]  40 0F 20 00 00 00 00 00
 (1789002005.168293)  can0  581   [8]  4B 0F 20 00 01 00 00 00
 (1789002005.169984)  can0  601   [8]  2B 0F 20 00 00 00 00 00
 (1789002005.170298)  can0  581   [8]  60 0F 20 00 00 00 00 00
 (1789002005.171980)  can0  601   [8]  40 0F 20 00 00 00 00 00
 (1789002005.172293)  can0  581   [8]  4B 0F 20 00 00 00 00 00
 (1789002005.173985)  can0  601   [8]  23 FF 60 01 00 00 00 00
 (1789002005.174344)  can0  581   [8]  60 FF 60 01 00 00 00 00
 (1789002005.175976)  can0  601   [8]  40 FF 60 01 00 00 00 00
 (1789002005.176337)  can0  581   [8]  43 FF 60 01 00 00 00 00
 (1789002005.177987)  can0  601   [8]  23 FF 60 02 00 00 00 00
 (1789002005.178336)  can0  581   [8]  60 FF 60 02 00 00 00 00
 (1789002005.179978)  can0  601   [8]  40 FF 60 02 00 00 00 00
 (1789002005.180333)  can0  581   [8]  43 FF 60 02 00 00 00 00
 (1789002005.181875)  can0  000   [2]  01 01
 (1789002005.182211)  can0  181   [8]  60 14 60 14 00 00 00 00
 (1789002005.182308)  can0  281   [0] 
 (1789002005.182407)  can0  381   [0] 
 (1789002005.182505)  can0  481   [0] 
 (1789002005.232207)  can0  181   [8]  60 14 60 14 00 00 00 00
 (1789002005.282164)  can0  181   [8]  60 14 60 14 00 00 00 00
 (1789002005.332109)  can0  181   [8]  60 14 60 14 00 00 00 00
 (1789002005.382058)  can0  181   [8]  60 14 60 14 00 00 00 00
 (1789002005.400325)  can0  701   [1]  05
 (1789002005.401992)  can0  601   [8]  2F 60 60 00 03 00 00 00
 (1789002005.402329)  can0  581   [8]  60 60 60 00 00 00 00 00
 (1789002005.403981)  can0  601   [8]  40 61 60 00 00 00 00 00
 (1789002005.404319)  can0  581   [8]  4F 61 60 00 03 00 00 00
 (1789002005.405988)  can0  601   [8]  2B 40 60 00 06 00 00 00
 (1789002005.406320)  can0  581   [8]  60 40 60 00 00 00 00 00
 (1789002005.432008)  can0  181   [8]  21 14 21 14 00 00 00 00
 (1789002005.433987)  can0  601   [8]  40 6C 60 01 00 00 00 00
 (1789002005.434312)  can0  581   [8]  43 6C 60 01 00 00 00 00
 (1789002005.435977)  can0  601   [8]  40 6C 60 02 00 00 00 00
 (1789002005.436308)  can0  581   [8]  43 6C 60 02 00 00 00 00
 (1789002005.437981)  can0  601   [8]  40 6C 60 03 00 00 00 00
 (1789002005.438300)  can0  581   [8]  43 6C 60 03 00 00 00 00
 (1789002005.439983)  can0  601   [8]  2B 40 60 00 07 00 00 00
 (1789002005.440303)  can0  581   [8]  60 40 60 00 00 00 00 00
 (1789002005.481961)  can0  181   [8]  23 14 23 14 00 00 00 00
 (1789002005.483996)  can0  601   [8]  40 6C 60 01 00 00 00 00
 (1789002005.484318)  can0  581   [8]  43 6C 60 01 00 00 00 00
 (1789002005.485977)  can0  601   [8]  40 6C 60 02 00 00 00 00
 (1789002005.486309)  can0  581   [8]  43 6C 60 02 00 00 00 00
 (1789002005.487977)  can0  601   [8]  40 6C 60 03 00 00 00 00
 (1789002005.488307)  can0  581   [8]  43 6C 60 03 00 00 00 00
 (1789002005.489986)  can0  601   [8]  2B 40 60 00 0F 00 00 00
 (1789002005.490310)  can0  581   [8]  60 40 60 00 00 00 00 00
 (1789002005.531852)  can0  181   [8]  27 14 27 14 00 00 00 00
 (1789002005.533985)  can0  601   [8]  40 6C 60 01 00 00 00 00
 (1789002005.534330)  can0  581   [8]  43 6C 60 01 00 00 00 00
 (1789002005.535978)  can0  601   [8]  40 6C 60 02 00 00 00 00
 (1789002005.536322)  can0  581   [8]  43 6C 60 02 00 00 00 00
 (1789002005.537977)  can0  601   [8]  40 6C 60 03 00 00 00 00
 (1789002005.538316)  can0  581   [8]  43 6C 60 03 00 00 00 00
 (1789002005.539989)  can0  601   [8]  23 FF 60 02 05 00 00 00
 (1789002005.540318)  can0  581   [8]  60 FF 60 02 00 00 00 00
 (1789002005.541980)  can0  601   [8]  40 FF 60 02 00 00 00 00
 (1789002005.542311)  can0  581   [8]  43 FF 60 02 05 00 00 00
 (1789002005.581803)  can0  181   [8]  27 14 27 44 00 00 00 00
 (1789002005.631752)  can0  181   [8]  27 14 27 44 00 00 00 00
 (1789002005.649819)  can0  701   [1]  05
 (1789002005.681753)  can0  181   [8]  27 14 27 44 00 00 00 00
 (1789002005.731662)  can0  181   [8]  27 14 27 44 00 00 00 00
 (1789002005.781605)  can0  181   [8]  27 14 27 44 00 00 00 00
 (1789002005.831554)  can0  181   [8]  27 14 27 44 00 00 00 00
 (1789002005.881495)  can0  181   [8]  27 14 27 44 00 00 00 00
 (1789002005.899378)  can0  701   [1]  05
 (1789002005.931458)  can0  181   [8]  27 14 27 44 00 00 00 00
 (1789002005.981411)  can0  181   [8]  27 14 27 44 00 00 00 00
 (1789002006.031349)  can0  181   [8]  27 14 27 44 00 00 00 00
 (1789002006.081296)  can0  181   [8]  27 14 27 44 00 00 00 00
 (1789002006.131240)  can0  181   [8]  27 14 27 44 00 00 00 00
 (1789002006.148876)  can0  701   [1]  05
 (1789002006.181211)  can0  181   [8]  27 14 27 44 00 00 00 00
 (1789002006.231155)  can0  181   [8]  27 14 27 44 00 00 00 00
 (1789002006.281092)  can0  181   [8]  27 14 27 44 00 00 00 00
 (1789002006.331037)  can0  181   [8]  27 14 27 44 00 00 00 00
 (1789002006.380986)  can0  181   [8]  27 14 27 44 00 00 00 00
 (1789002006.398436)  can0  701   [1]  05
 (1789002006.431011)  can0  181   [8]  27 14 27 44 00 00 00 00
 (1789002006.481008)  can0  181   [8]  27 14 27 44 00 00 00 00
 (1789002006.530958)  can0  181   [8]  27 14 27 44 00 00 00 00
 (1789002006.580963)  can0  181   [8]  27 14 27 44 00 00 00 00
 (1789002006.630921)  can0  181   [8]  27 14 27 44 00 00 00 00
 (1789002006.648001)  can0  701   [1]  05
 (1789002006.680934)  can0  181   [8]  27 14 27 44 00 00 00 00
 (1789002006.730884)  can0  181   [8]  27 14 27 44 00 00 00 00
 (1789002006.780885)  can0  181   [8]  27 14 27 44 00 00 00 00
 (1789002006.830839)  can0  181   [8]  27 14 27 44 00 00 00 00
 (1789002006.880845)  can0  181   [8]  27 14 27 44 00 00 00 00
 (1789002006.897500)  can0  701   [1]  05
 (1789002006.930818)  can0  181   [8]  27 14 27 44 00 00 00 00
 (1789002006.980800)  can0  181   [8]  27 14 27 44 00 00 00 00
 (1789002007.030763)  can0  181   [8]  27 14 27 44 00 00 00 00
 (1789002007.080763)  can0  181   [8]  27 14 27 44 00 00 00 00
 (1789002007.130739)  can0  181   [8]  27 14 27 44 00 00 00 00
 (1789002007.147051)  can0  701   [1]  05
 (1789002007.180727)  can0  181   [8]  27 14 27 44 00 00 00 00
 (1789002007.230681)  can0  181   [8]  27 14 27 44 00 00 00 00
 (1789002007.280683)  can0  181   [8]  27 14 27 44 00 00 00 00
 (1789002007.330637)  can0  181   [8]  27 14 27 44 00 00 00 00
 (1789002007.380659)  can0  181   [8]  27 14 27 44 00 00 00 00
 (1789002007.396551)  can0  701   [1]  05
 (1789002007.430614)  can0  181   [8]  27 14 27 44 00 00 00 00
 (1789002007.480607)  can0  181   [8]  27 14 27 44 00 00 00 00
 (1789002007.530560)  can0  181   [8]  27 14 27 44 00 00 00 00
 (1789002007.580560)  can0  181   [8]  27 14 27 44 00 00 00 00
 (1789002007.630539)  can0  181   [8]  27 14 27 44 00 00 00 00
 (1789002007.646106)  can0  701   [1]  05
 (1789002007.680535)  can0  181   [8]  27 14 27 44 00 00 00 00
 (1789002007.730483)  can0  181   [8]  27 14 27 44 00 00 00 00
 (1789002007.780477)  can0  181   [8]  27 14 27 44 00 00 00 00
 (1789002007.830382)  can0  181   [8]  27 14 27 44 00 00 00 00
 (1789002007.880340)  can0  181   [8]  27 14 27 44 00 00 00 00
 (1789002007.895601)  can0  701   [1]  05
 (1789002007.930281)  can0  181   [8]  27 14 27 44 00 00 00 00
 (1789002007.980226)  can0  181   [8]  27 14 27 44 00 00 00 00
 (1789002008.030171)  can0  181   [8]  27 14 27 44 00 00 00 00
 (1789002008.080130)  can0  181   [8]  27 14 27 44 00 00 00 00
 (1789002008.130090)  can0  181   [8]  27 14 27 44 00 00 00 00
 (1789002008.145147)  can0  701   [1]  05
 (1789002008.180021)  can0  181   [8]  27 14 27 44 00 00 00 00
 (1789002008.229968)  can0  181   [8]  27 14 27 44 00 00 00 00
 (1789002008.279917)  can0  181   [8]  27 14 27 44 00 00 00 00
 (1789002008.329886)  can0  181   [8]  27 14 27 44 00 00 00 00
 (1789002008.379827)  can0  181   [8]  27 14 27 44 00 00 00 00
 (1789002008.394643)  can0  701   [1]  05
 (1789002008.429763)  can0  181   [8]  27 14 27 44 00 00 00 00
 (1789002008.479712)  can0  181   [8]  27 14 27 44 00 00 00 00
 (1789002008.529606)  can0  181   [8]  27 14 27 44 00 00 00 00
 (1789002008.579557)  can0  181   [8]  27 14 27 44 00 00 00 00
 (1789002008.629503)  can0  181   [8]  27 14 27 44 00 00 00 00
 (1789002008.644141)  can0  701   [1]  05
 (1789002008.679451)  can0  181   [8]  27 14 27 44 00 00 00 00
 (1789002008.729399)  can0  181   [8]  27 14 27 44 00 00 00 00
 (1789002008.779399)  can0  181   [8]  27 14 27 44 00 00 00 00
 (1789002008.829296)  can0  181   [8]  27 14 27 44 00 00 00 00
 (1789002008.879247)  can0  181   [8]  27 14 27 44 00 00 00 00
 (1789002008.893636)  can0  701   [1]  05
 (1789002008.929195)  can0  181   [8]  27 14 27 44 00 00 00 00
 (1789002008.979146)  can0  181   [8]  27 14 27 44 00 00 00 00
 (1789002009.029093)  can0  181   [8]  27 14 27 44 00 00 00 00
 (1789002009.079041)  can0  181   [8]  27 14 27 44 00 00 00 00
 (1789002009.128990)  can0  181   [8]  27 14 27 44 00 00 00 00
 (1789002009.143191)  can0  701   [1]  05
 (1789002009.179005)  can0  181   [8]  27 14 27 44 00 00 00 00
 (1789002009.229002)  can0  181   [8]  27 14 27 44 00 00 00 00
 (1789002009.278958)  can0  181   [8]  27 14 27 44 00 00 00 00
 (1789002009.328903)  can0  181   [8]  27 14 27 44 00 00 00 00
 (1789002009.378864)  can0  181   [8]  27 14 27 44 00 00 00 00
 (1789002009.392821)  can0  701   [1]  05
 (1789002009.428818)  can0  181   [8]  27 14 27 44 00 00 00 00
 (1789002009.478765)  can0  181   [8]  27 14 27 44 00 00 00 00
 (1789002009.528707)  can0  181   [8]  27 14 27 44 00 00 00 00
 (1789002009.578651)  can0  181   [8]  27 14 27 44 00 00 00 00
 (1789002009.628607)  can0  181   [8]  27 14 27 44 00 00 00 00
 (1789002009.642306)  can0  701   [1]  05
 (1789002009.678550)  can0  181   [8]  27 14 27 44 00 00 00 00
 (1789002009.728497)  can0  181   [8]  27 14 27 44 00 00 00 00
 (1789002009.778449)  can0  181   [8]  27 14 27 44 00 00 00 00
 (1789002009.828407)  can0  181   [8]  27 14 27 44 00 00 00 00
 (1789002009.878403)  can0  181   [8]  27 14 27 44 00 00 00 00
 (1789002009.891863)  can0  701   [1]  05
 (1789002009.928342)  can0  181   [8]  27 14 27 44 00 00 00 00
 (1789002009.978241)  can0  181   [8]  27 14 27 44 00 00 00 00
 (1789002010.028199)  can0  181   [8]  27 14 27 44 00 00 00 00
 (1789002010.078159)  can0  181   [8]  27 14 27 44 00 00 00 00
 (1789002010.128100)  can0  181   [8]  27 14 27 44 00 00 00 00
 (1789002010.141354)  can0  701   [1]  05
 (1789002010.178037)  can0  181   [8]  27 14 27 44 00 00 00 00
 (1789002010.227987)  can0  181   [8]  27 14 27 44 00 00 00 00
 (1789002010.277955)  can0  181   [8]  27 14 27 44 00 00 00 00
 (1789002010.327896)  can0  181   [8]  27 14 27 44 00 00 00 00
 (1789002010.377780)  can0  181   [8]  27 14 27 44 00 00 00 00
 (1789002010.390855)  can0  701   [1]  05
 (1789002010.427724)  can0  181   [8]  27 14 27 44 00 00 00 00
 (1789002010.477675)  can0  181   [8]  27 14 27 44 00 00 00 00
 (1789002010.527625)  can0  181   [8]  27 14 27 44 00 00 00 00
 (1789002010.577572)  can0  181   [8]  27 14 27 44 00 00 00 00
 (1789002010.627521)  can0  181   [8]  27 14 27 44 00 00 00 00
 (1789002010.640351)  can0  701   [1]  05
 (1789002010.677469)  can0  181   [8]  27 14 27 44 00 00 00 00
 (1789002010.727418)  can0  181   [8]  27 14 27 44 00 00 00 00
 (1789002010.777370)  can0  181   [8]  27 14 27 44 00 00 00 00
 (1789002010.827320)  can0  181   [8]  27 14 27 44 00 00 00 00
 (1789002010.877265)  can0  181   [8]  27 14 27 44 00 00 00 00
 (1789002010.889908)  can0  701   [1]  05
 (1789002010.927214)  can0  181   [8]  27 14 27 44 00 00 00 00
 (1789002010.977164)  can0  181   [8]  27 14 27 44 00 00 00 00
 (1789002011.027112)  can0  181   [8]  27 14 27 44 00 00 00 00
 (1789002011.077063)  can0  181   [8]  27 14 27 44 00 00 00 00
 (1789002011.127009)  can0  181   [8]  27 14 27 44 00 00 00 00
 (1789002011.139404)  can0  701   [1]  05
 (1789002011.176959)  can0  181   [8]  27 14 27 44 00 00 00 00
 (1789002011.226909)  can0  181   [8]  27 14 27 44 00 00 00 00
 (1789002011.276856)  can0  181   [8]  27 14 27 44 00 00 00 00
 (1789002011.326805)  can0  181   [8]  27 14 27 44 00 00 00 00
 (1789002011.376755)  can0  181   [8]  27 14 27 44 00 00 00 00
 (1789002011.388961)  can0  701   [1]  05
 (1789002011.426702)  can0  181   [8]  27 14 27 44 00 00 00 00
 (1789002011.476654)  can0  181   [8]  27 14 27 44 00 00 00 00
 (1789002011.526602)  can0  181   [8]  27 14 27 44 00 00 00 00
 (1789002011.576550)  can0  181   [8]  27 14 27 44 00 00 00 00
 (1789002011.626500)  can0  181   [8]  27 14 27 44 00 00 00 00
 (1789002011.638456)  can0  701   [1]  05
 (1789002011.676447)  can0  181   [8]  27 14 27 44 00 00 00 00
 (1789002011.726397)  can0  181   [8]  27 14 27 44 00 00 00 00
 (1789002011.776349)  can0  181   [8]  27 14 27 44 00 00 00 00
 (1789002011.826296)  can0  181   [8]  27 14 27 44 00 00 00 00
 (1789002011.876244)  can0  181   [8]  27 14 27 44 00 00 00 00
 (1789002011.888014)  can0  701   [1]  05
 (1789002011.926192)  can0  181   [8]  27 14 27 44 00 00 00 00
 (1789002011.976144)  can0  181   [8]  27 14 27 44 00 00 00 00
 (1789002012.026091)  can0  181   [8]  27 14 27 44 00 00 00 00
 (1789002012.076038)  can0  181   [8]  27 14 27 44 00 00 00 00
 (1789002012.126047)  can0  181   [8]  27 14 27 44 00 00 00 00
 (1789002012.137568)  can0  701   [1]  05
 (1789002012.175994)  can0  181   [8]  27 14 27 44 00 00 00 00
 (1789002012.225959)  can0  181   [8]  27 14 27 44 00 00 00 00
 (1789002012.275903)  can0  181   [8]  27 14 27 44 00 00 00 00
 (1789002012.325854)  can0  181   [8]  27 14 27 44 00 00 00 00
 (1789002012.375791)  can0  181   [8]  27 14 27 44 00 00 00 00
 (1789002012.387122)  can0  701   [1]  05
 (1789002012.425744)  can0  181   [8]  27 14 27 44 00 00 00 00
 (1789002012.475703)  can0  181   [8]  27 14 27 44 00 00 00 00
 (1789002012.525646)  can0  181   [8]  27 14 27 44 00 00 00 00
 (1789002012.575590)  can0  181   [8]  27 14 27 44 00 00 00 00
 (1789002012.625535)  can0  181   [8]  27 14 27 44 00 00 00 00
 (1789002012.636618)  can0  701   [1]  05
 (1789002012.675496)  can0  181   [8]  27 14 27 44 00 00 00 00
 (1789002012.725446)  can0  181   [8]  27 14 27 44 00 00 00 00
 (1789002012.775383)  can0  181   [8]  27 14 27 44 00 00 00 00
 (1789002012.825330)  can0  181   [8]  27 14 27 44 00 00 00 00
 (1789002012.875279)  can0  181   [8]  27 14 27 44 00 00 00 00
 (1789002012.886175)  can0  701   [1]  05
 (1789002012.925241)  can0  181   [8]  27 14 27 44 00 00 00 00
 (1789002012.975237)  can0  181   [8]  27 14 27 44 00 00 00 00
 (1789002013.025180)  can0  181   [8]  27 14 27 44 00 00 00 00
 (1789002013.075141)  can0  181   [8]  27 14 27 44 00 00 00 00
 (1789002013.125143)  can0  181   [8]  27 14 27 44 00 00 00 00
 (1789002013.135674)  can0  701   [1]  05
 (1789002013.175115)  can0  181   [8]  27 14 27 44 00 00 00 00
 (1789002013.225098)  can0  181   [8]  27 14 27 44 00 00 00 00
 (1789002013.274996)  can0  181   [8]  27 14 27 44 00 00 00 00
 (1789002013.324947)  can0  181   [8]  27 14 27 44 00 00 00 00
 (1789002013.374898)  can0  181   [8]  27 14 27 44 00 00 00 00
 (1789002013.385234)  can0  701   [1]  05
 (1789002013.424925)  can0  181   [8]  27 14 27 44 00 00 00 00
 (1789002013.474864)  can0  181   [8]  27 14 27 44 00 00 00 00
 (1789002013.524813)  can0  181   [8]  27 14 27 44 00 00 00 00
 (1789002013.574752)  can0  181   [8]  27 14 27 44 00 00 00 00
 (1789002013.624710)  can0  181   [8]  27 14 27 44 00 00 00 00
 (1789002013.634799)  can0  701   [1]  05
 (1789002013.674665)  can0  181   [8]  27 14 27 44 00 00 00 00
 (1789002013.724609)  can0  181   [8]  27 14 27 44 00 00 00 00
 (1789002013.774555)  can0  181   [8]  27 14 27 44 00 00 00 00
 (1789002013.824498)  can0  181   [8]  27 14 27 44 00 00 00 00
 (1789002013.874470)  can0  181   [8]  27 14 27 44 00 00 00 00
 (1789002013.884295)  can0  701   [1]  05
 (1789002013.924404)  can0  181   [8]  27 14 27 44 00 00 00 00
 (1789002013.974352)  can0  181   [8]  27 14 27 44 00 00 00 00
 (1789002014.024295)  can0  181   [8]  27 14 27 44 00 00 00 00
 (1789002014.074243)  can0  181   [8]  27 14 27 44 00 00 00 00
 (1789002014.124209)  can0  181   [8]  27 14 27 44 00 00 00 00
 (1789002014.133852)  can0  701   [1]  05
 (1789002014.174146)  can0  181   [8]  27 14 27 44 00 00 00 00
 (1789002014.224092)  can0  181   [8]  27 14 27 44 00 00 00 00
 (1789002014.274039)  can0  181   [8]  27 14 27 44 00 00 00 00
 (1789002014.323988)  can0  181   [8]  27 14 27 44 00 00 00 00
 (1789002014.373950)  can0  181   [8]  27 14 27 44 00 00 00 00
 (1789002014.383349)  can0  701   [1]  05
 (1789002014.423895)  can0  181   [8]  27 14 27 44 00 00 00 00
 (1789002014.473838)  can0  181   [8]  27 14 27 44 00 00 00 00
 (1789002014.523726)  can0  181   [8]  27 14 27 44 00 00 00 00
 (1789002014.573737)  can0  181   [8]  27 14 27 44 00 00 00 00
 (1789002014.623691)  can0  181   [8]  27 14 27 44 00 00 00 00
 (1789002014.633025)  can0  701   [1]  05
 (1789002014.673628)  can0  181   [8]  27 14 27 44 00 00 00 00
 (1789002014.723578)  can0  181   [8]  27 14 27 44 00 00 00 00
 (1789002014.773524)  can0  181   [8]  27 14 27 44 00 00 00 00
 (1789002014.823483)  can0  181   [8]  27 14 27 44 00 00 00 00
 (1789002014.873433)  can0  181   [8]  27 14 27 44 00 00 00 00
 (1789002014.882386)  can0  701   [1]  05
 (1789002014.923371)  can0  181   [8]  27 14 27 44 00 00 00 00
 (1789002014.973324)  can0  181   [8]  27 14 27 44 00 00 00 00
 (1789002015.023269)  can0  181   [8]  27 14 27 44 00 00 00 00
 (1789002015.073237)  can0  181   [8]  27 14 27 44 00 00 00 00
 (1789002015.123180)  can0  181   [8]  27 14 27 44 00 00 00 00
 (1789002015.131948)  can0  701   [1]  05
 (1789002015.173117)  can0  181   [8]  27 14 27 44 00 00 00 00
 (1789002015.223065)  can0  181   [8]  27 14 27 44 00 00 00 00
 (1789002015.273012)  can0  181   [8]  27 14 27 44 00 00 00 00
 (1789002015.322978)  can0  181   [8]  27 14 27 44 00 00 00 00
 (1789002015.372926)  can0  181   [8]  27 14 27 44 00 00 00 00
 (1789002015.381441)  can0  701   [1]  05
 (1789002015.422860)  can0  181   [8]  27 14 27 44 00 00 00 00
 (1789002015.472810)  can0  181   [8]  27 14 27 44 00 00 00 00
 (1789002015.522756)  can0  181   [8]  27 14 27 44 00 00 00 00
 (1789002015.541020)  can0  601   [8]  2B 40 60 00 00 00 00 00
 (1789002015.541327)  can0  581   [8]  60 40 60 00 00 00 00 00
 (1789002015.572774)  can0  181   [8]  60 14 60 14 00 00 00 00
 (1789002015.574994)  can0  601   [8]  40 6C 60 01 00 00 00 00
 (1789002015.575313)  can0  581   [8]  43 6C 60 01 00 00 00 00
 (1789002015.576975)  can0  601   [8]  40 6C 60 02 00 00 00 00
 (1789002015.577305)  can0  581   [8]  43 6C 60 02 22 00 00 00
 (1789002015.622715)  can0  181   [8]  60 14 60 14 00 00 00 00
 (1789002015.629987)  can0  601   [8]  40 6C 60 01 00 00 00 00
 (1789002015.630314)  can0  581   [8]  43 6C 60 01 00 00 00 00
 (1789002015.631000)  can0  701   [1]  05
 (1789002015.631326)  can0  601   [8]  40 6C 60 02 00 00 00 00
 (1789002015.631682)  can0  581   [8]  43 6C 60 02 FA FF FF FF
 (1789002015.672654)  can0  181   [8]  60 14 60 14 00 00 00 00
 (1789002015.683931)  can0  601   [8]  40 6C 60 01 00 00 00 00
 (1789002015.684257)  can0  581   [8]  43 6C 60 01 00 00 00 00
 (1789002015.685918)  can0  601   [8]  40 6C 60 02 00 00 00 00
 (1789002015.686253)  can0  581   [8]  43 6C 60 02 01 00 00 00
 (1789002015.722546)  can0  181   [8]  60 14 60 14 00 00 00 00
 (1789002015.738922)  can0  601   [8]  40 6C 60 01 00 00 00 00
 (1789002015.739255)  can0  581   [8]  43 6C 60 01 00 00 00 00
 (1789002015.740918)  can0  601   [8]  40 6C 60 02 00 00 00 00
 (1789002015.741255)  can0  581   [8]  43 6C 60 02 FF FF FF FF
 (1789002015.772494)  can0  181   [8]  60 14 60 14 00 00 00 00
 (1789002015.793930)  can0  601   [8]  40 6C 60 01 00 00 00 00
 (1789002015.794256)  can0  581   [8]  43 6C 60 01 00 00 00 00
 (1789002015.795917)  can0  601   [8]  40 6C 60 02 00 00 00 00
 (1789002015.796256)  can0  581   [8]  43 6C 60 02 FF FF FF FF
 (1789002015.822445)  can0  181   [8]  60 14 60 14 00 00 00 00
 (1789002015.848928)  can0  601   [8]  40 6C 60 01 00 00 00 00
 (1789002015.849255)  can0  581   [8]  43 6C 60 01 00 00 00 00
 (1789002015.850917)  can0  601   [8]  40 6C 60 02 00 00 00 00
 (1789002015.851255)  can0  581   [8]  43 6C 60 02 FF FF FF FF
 (1789002015.872391)  can0  181   [8]  60 14 60 14 00 00 00 00
 (1789002015.880438)  can0  701   [1]  05
 (1789002015.903924)  can0  601   [8]  40 6C 60 01 00 00 00 00
 (1789002015.904254)  can0  581   [8]  43 6C 60 01 00 00 00 00
 (1789002015.905919)  can0  601   [8]  40 6C 60 02 00 00 00 00
 (1789002015.906254)  can0  581   [8]  43 6C 60 02 FF FF FF FF
 (1789002015.922341)  can0  181   [8]  60 14 60 14 00 00 00 00
 (1789002015.958921)  can0  601   [8]  40 6C 60 01 00 00 00 00
 (1789002015.959255)  can0  581   [8]  43 6C 60 01 00 00 00 00
 (1789002015.960917)  can0  601   [8]  40 6C 60 02 00 00 00 00
 (1789002015.961250)  can0  581   [8]  43 6C 60 02 00 00 00 00
 (1789002015.962921)  can0  601   [8]  40 6C 60 03 00 00 00 00
 (1789002015.963247)  can0  581   [8]  43 6C 60 03 00 00 00 00
 (1789002015.964933)  can0  601   [8]  23 FF 60 01 00 00 00 00
 (1789002015.965246)  can0  581   [8]  60 FF 60 01 00 00 00 00
 (1789002015.966918)  can0  601   [8]  40 FF 60 01 00 00 00 00
 (1789002015.967242)  can0  581   [8]  43 FF 60 01 00 00 00 00
 (1789002015.968928)  can0  601   [8]  23 FF 60 02 00 00 00 00
 (1789002015.969239)  can0  581   [8]  60 FF 60 02 00 00 00 00
 (1789002015.970920)  can0  601   [8]  40 FF 60 02 00 00 00 00
 (1789002015.971233)  can0  581   [8]  43 FF 60 02 00 00 00 00
 (1789002015.972289)  can0  181   [8]  60 14 60 14 00 00 00 00
 (1789002015.972570)  can0  601   [8]  40 6C 60 01 00 00 00 00
 (1789002015.972911)  can0  581   [8]  43 6C 60 01 00 00 00 00
 (1789002015.973917)  can0  601   [8]  40 6C 60 02 00 00 00 00
 (1789002015.974224)  can0  581   [8]  43 6C 60 02 00 00 00 00
 (1789002015.975919)  can0  601   [8]  40 6C 60 03 00 00 00 00
 (1789002015.976226)  can0  581   [8]  43 6C 60 03 00 00 00 00
 (1789002015.977816)  can0  000   [2]  80 01
 (1789002016.129997)  can0  701   [1]  7F
 (1789002016.131931)  can0  601   [8]  2B 0F 20 00 01 00 00 00
 (1789002016.132244)  can0  581   [8]  60 0F 20 00 00 00 00 00
 (1789002016.133926)  can0  601   [8]  40 0F 20 00 00 00 00 00
 (1789002016.134235)  can0  581   [8]  4B 0F 20 00 01 00 00 00
 (1789002016.135920)  can0  601   [8]  2B 17 10 00 00 00 00 00
 (1789002016.136233)  can0  581   [8]  60 17 10 00 00 00 00 00
 (1789002016.137917)  can0  601   [8]  40 17 10 00 00 00 00 00
 (1789002016.138227)  can0  581   [8]  4B 17 10 00 00 00 00 00
