 (1789637930.639959)  can0  601   [8]  40 41 60 00 00 00 00 00
 (1789637930.640301)  can0  581   [8]  43 41 60 00 40 14 40 14
 (1789637930.641506)  can0  601   [8]  40 60 60 00 00 00 00 00
 (1789637930.641866)  can0  581   [8]  4F 60 60 00 03 00 00 00
 (1789637930.643403)  can0  601   [8]  40 61 60 00 00 00 00 00
 (1789637930.643680)  can0  581   [8]  4F 61 60 00 03 00 00 00
 (1789637930.645389)  can0  601   [8]  40 3F 60 00 00 00 00 00
 (1789637930.645679)  can0  581   [8]  43 3F 60 00 00 00 00 00
 (1789637930.647328)  can0  601   [8]  40 FF 60 01 00 00 00 00
 (1789637930.647673)  can0  581   [8]  43 FF 60 01 00 00 00 00
 (1789637930.649388)  can0  601   [8]  40 FF 60 02 00 00 00 00
 (1789637930.649671)  can0  581   [8]  43 FF 60 02 00 00 00 00
 (1789637930.651333)  can0  601   [8]  40 0F 20 00 00 00 00 00
 (1789637930.651719)  can0  581   [8]  4B 0F 20 00 01 00 00 00
 (1789637930.653388)  can0  601   [8]  40 00 20 00 00 00 00 00
 (1789637930.653662)  can0  581   [8]  4B 00 20 00 00 00 00 00
 (1789637930.655388)  can0  601   [8]  40 17 10 00 00 00 00 00
 (1789637930.655654)  can0  581   [8]  4B 17 10 00 00 00 00 00
 (1789637930.657331)  can0  601   [8]  40 00 14 01 00 00 00 00
 (1789637930.657647)  can0  581   [8]  43 00 14 01 01 02 00 00
 (1789637930.659389)  can0  601   [8]  40 00 14 02 00 00 00 00
 (1789637930.659641)  can0  581   [8]  4F 00 14 02 FF 00 00 00
 (1789637930.661332)  can0  601   [8]  40 00 14 05 00 00 00 00
 (1789637930.661696)  can0  581   [8]  4B 00 14 05 E8 03 00 00
 (1789637930.663390)  can0  601   [8]  40 00 16 00 00 00 00 00
 (1789637930.663699)  can0  581   [8]  4F 00 16 00 02 00 00 00
 (1789637930.665330)  can0  601   [8]  40 00 16 01 00 00 00 00
 (1789637930.665686)  can0  581   [8]  43 00 16 01 10 00 40 60
 (1789637930.667329)  can0  601   [8]  40 00 16 02 00 00 00 00
 (1789637930.667686)  can0  581   [8]  43 00 16 02 08 00 60 60
 (1789637930.669388)  can0  601   [8]  40 00 18 01 00 00 00 00
 (1789637930.669684)  can0  581   [8]  43 00 18 01 81 01 00 00
 (1789637930.671333)  can0  601   [8]  40 00 18 02 00 00 00 00
 (1789637930.671736)  can0  581   [8]  4F 00 18 02 FF 00 00 00
 (1789637930.673384)  can0  601   [8]  40 00 18 05 00 00 00 00
 (1789637930.673673)  can0  581   [8]  4B 00 18 05 64 00 00 00
 (1789637930.675389)  can0  601   [8]  40 00 1A 00 00 00 00 00
 (1789637930.675673)  can0  581   [8]  4F 00 1A 00 02 00 00 00
 (1789637930.677330)  can0  601   [8]  40 00 1A 01 00 00 00 00
 (1789637930.677659)  can0  581   [8]  43 00 1A 01 20 00 41 60
 (1789637930.679389)  can0  601   [8]  40 00 1A 02 00 00 00 00
 (1789637930.679654)  can0  581   [8]  43 00 1A 02 20 03 6C 60
 (1789637930.681332)  can0  601   [8]  40 01 18 01 00 00 00 00
 (1789637930.681710)  can0  581   [8]  43 01 18 01 81 02 00 00
 (1789637930.683383)  can0  601   [8]  40 01 18 02 00 00 00 00
 (1789637930.683709)  can0  581   [8]  4F 01 18 02 FF 00 00 00
 (1789637930.685431)  can0  601   [8]  40 01 18 05 00 00 00 00
 (1789637930.685646)  can0  581   [8]  4B 01 18 05 00 00 00 00
 (1789637930.686443)  can0  601   [8]  40 01 1A 00 00 00 00 00
 (1789637930.686769)  can0  581   [8]  4F 01 1A 00 00 00 00 00
 (1789637930.688396)  can0  601   [8]  40 01 1A 01 00 00 00 00
 (1789637930.688757)  can0  581   [8]  43 01 1A 01 00 00 00 00
 (1789637930.690298)  can0  601   [8]  40 01 1A 02 00 00 00 00
 (1789637930.690632)  can0  581   [8]  43 01 1A 02 00 00 00 00
 (1789637930.692302)  can0  601   [8]  40 6C 60 01 00 00 00 00
 (1789637930.692628)  can0  581   [8]  43 6C 60 01 00 00 00 00
 (1789637930.694296)  can0  601   [8]  40 6C 60 02 00 00 00 00
 (1789637930.694623)  can0  581   [8]  43 6C 60 02 00 00 00 00
 (1789637930.696296)  can0  601   [8]  40 6C 60 03 00 00 00 00
 (1789637930.696619)  can0  581   [8]  43 6C 60 03 00 00 00 00
 (1789637930.718379)  can0  601   [8]  40 6C 60 01 00 00 00 00
 (1789637930.718689)  can0  581   [8]  43 6C 60 01 00 00 00 00
 (1789637930.720385)  can0  601   [8]  40 6C 60 02 00 00 00 00
 (1789637930.720688)  can0  581   [8]  43 6C 60 02 00 00 00 00
 (1789637930.722385)  can0  601   [8]  40 6C 60 03 00 00 00 00
 (1789637930.722683)  can0  581   [8]  43 6C 60 03 00 00 00 00
 (1789637930.745377)  can0  601   [8]  40 6C 60 01 00 00 00 00
 (1789637930.745689)  can0  581   [8]  43 6C 60 01 00 00 00 00
 (1789637930.747384)  can0  601   [8]  40 6C 60 02 00 00 00 00
 (1789637930.747686)  can0  581   [8]  43 6C 60 02 00 00 00 00
 (1789637930.749385)  can0  601   [8]  40 6C 60 03 00 00 00 00
 (1789637930.749740)  can0  581   [8]  43 6C 60 03 00 00 00 00
 (1789637930.772379)  can0  601   [8]  40 6C 60 01 00 00 00 00
 (1789637930.772689)  can0  581   [8]  43 6C 60 01 00 00 00 00
 (1789637930.774383)  can0  601   [8]  40 6C 60 02 00 00 00 00
 (1789637930.774743)  can0  581   [8]  43 6C 60 02 00 00 00 00
 (1789637930.776385)  can0  601   [8]  40 6C 60 03 00 00 00 00
 (1789637930.776683)  can0  581   [8]  43 6C 60 03 00 00 00 00
 (1789637930.799378)  can0  601   [8]  40 6C 60 01 00 00 00 00
 (1789637930.799690)  can0  581   [8]  43 6C 60 01 00 00 00 00
 (1789637930.801385)  can0  601   [8]  40 6C 60 02 00 00 00 00
 (1789637930.801740)  can0  581   [8]  43 6C 60 02 00 00 00 00
 (1789637930.803385)  can0  601   [8]  40 6C 60 03 00 00 00 00
 (1789637930.803740)  can0  581   [8]  43 6C 60 03 00 00 00 00
 (1789637930.826378)  can0  601   [8]  40 6C 60 01 00 00 00 00
 (1789637930.826690)  can0  581   [8]  43 6C 60 01 00 00 00 00
 (1789637930.828327)  can0  601   [8]  40 6C 60 02 00 00 00 00
 (1789637930.828686)  can0  581   [8]  43 6C 60 02 00 00 00 00
 (1789637930.830381)  can0  601   [8]  40 6C 60 03 00 00 00 00
 (1789637930.830684)  can0  581   [8]  43 6C 60 03 00 00 00 00
 (1789637930.853387)  can0  601   [8]  40 6C 60 01 00 00 00 00
 (1789637930.853688)  can0  581   [8]  43 6C 60 01 00 00 00 00
 (1789637930.855388)  can0  601   [8]  40 6C 60 02 00 00 00 00
 (1789637930.855746)  can0  581   [8]  43 6C 60 02 00 00 00 00
 (1789637930.857386)  can0  601   [8]  40 6C 60 03 00 00 00 00
 (1789637930.857685)  can0  581   [8]  43 6C 60 03 00 00 00 00
 (1789637930.859425)  can0  601   [8]  2B 17 10 00 F4 01 00 00
 (1789637930.859687)  can0  581   [8]  60 17 10 00 00 00 00 00
 (1789637930.861323)  can0  601   [8]  40 17 10 00 00 00 00 00
 (1789637930.861729)  can0  581   [8]  4B 17 10 00 F4 01 00 00
 (1789637931.109175)  can0  701   [1]  7F
 (1789637931.110311)  can0  000   [2]  80 01
 (1789637931.358720)  can0  701   [1]  7F
 (1789637931.360437)  can0  601   [8]  2B 00 20 00 E8 03 00 00
 (1789637931.360721)  can0  581   [8]  60 00 20 00 00 00 00 00
 (1789637931.362391)  can0  601   [8]  40 00 20 00 00 00 00 00
 (1789637931.362701)  can0  581   [8]  4B 00 20 00 E8 03 00 00
 (1789637931.364396)  can0  601   [8]  23 00 14 01 01 02 00 80
 (1789637931.364759)  can0  581   [8]  60 00 14 01 00 00 00 00
 (1789637931.366379)  can0  601   [8]  40 00 14 01 00 00 00 00
 (1789637931.366637)  can0  581   [8]  43 00 14 01 01 02 00 80
 (1789637931.368385)  can0  601   [8]  2F 00 16 00 00 00 00 00
 (1789637931.368700)  can0  581   [8]  60 00 16 00 00 00 00 00
 (1789637931.370384)  can0  601   [8]  40 00 16 00 00 00 00 00
 (1789637931.370689)  can0  581   [8]  4F 00 16 00 00 00 00 00
 (1789637931.372380)  can0  601   [8]  23 00 16 01 10 00 40 60
 (1789637931.372745)  can0  581   [8]  60 00 16 01 00 00 00 00
 (1789637931.374321)  can0  601   [8]  40 00 16 01 00 00 00 00
 (1789637931.374745)  can0  581   [8]  43 00 16 01 10 00 40 60
 (1789637931.376383)  can0  601   [8]  23 00 16 02 20 03 FF 60
 (1789637931.376681)  can0  581   [8]  60 00 16 02 00 00 00 00
 (1789637931.378322)  can0  601   [8]  40 00 16 02 00 00 00 00
 (1789637931.378671)  can0  581   [8]  43 00 16 02 20 03 FF 60
 (1789637931.380329)  can0  601   [8]  2F 00 16 00 02 00 00 00
 (1789637931.380672)  can0  581   [8]  60 00 16 00 00 00 00 00
 (1789637931.382383)  can0  601   [8]  40 00 16 00 00 00 00 00
 (1789637931.382665)  can0  581   [8]  4F 00 16 00 02 00 00 00
 (1789637931.384327)  can0  601   [8]  23 00 14 01 01 02 00 00
 (1789637931.384660)  can0  581   [8]  60 00 14 01 00 00 00 00
 (1789637931.386380)  can0  601   [8]  40 00 14 01 00 00 00 00
 (1789637931.386651)  can0  581   [8]  43 00 14 01 01 02 00 00
 (1789637931.388387)  can0  601   [8]  23 01 18 01 81 02 00 80
 (1789637931.388707)  can0  581   [8]  60 01 18 01 00 00 00 00
 (1789637931.390323)  can0  601   [8]  40 01 18 01 00 00 00 00
 (1789637931.390640)  can0  581   [8]  43 01 18 01 81 02 00 80
 (1789637931.392386)  can0  601   [8]  2F 01 1A 00 00 00 00 00
 (1789637931.392644)  can0  581   [8]  60 01 1A 00 00 00 00 00
 (1789637931.394322)  can0  601   [8]  40 01 1A 00 00 00 00 00
 (1789637931.394635)  can0  581   [8]  4F 01 1A 00 00 00 00 00
 (1789637931.396377)  can0  601   [8]  23 01 1A 01 08 00 61 60
 (1789637931.396688)  can0  581   [8]  60 01 1A 01 00 00 00 00
 (1789637931.398325)  can0  601   [8]  40 01 1A 01 00 00 00 00
 (1789637931.398679)  can0  581   [8]  43 01 1A 01 08 00 61 60
 (1789637931.400330)  can0  601   [8]  23 01 1A 02 20 00 3F 60
 (1789637931.400683)  can0  581   [8]  60 01 1A 02 00 00 00 00
 (1789637931.402377)  can0  601   [8]  40 01 1A 02 00 00 00 00
 (1789637931.402675)  can0  581   [8]  43 01 1A 02 20 00 3F 60
 (1789637931.404328)  can0  601   [8]  2F 01 1A 00 02 00 00 00
 (1789637931.404681)  can0  581   [8]  60 01 1A 00 00 00 00 00
 (1789637931.406384)  can0  601   [8]  40 01 1A 00 00 00 00 00
 (1789637931.406673)  can0  581   [8]  4F 01 1A 00 02 00 00 00
 (1789637931.408390)  can0  601   [8]  2B 01 18 05 64 00 00 00
 (1789637931.408721)  can0  581   [8]  60 01 18 05 00 00 00 00
 (1789637931.410320)  can0  601   [8]  40 01 18 05 00 00 00 00
 (1789637931.410657)  can0  581   [8]  4B 01 18 05 64 00 00 00
 (1789637931.412387)  can0  601   [8]  23 01 18 01 81 02 00 00
 (1789637931.412660)  can0  581   [8]  60 01 18 01 00 00 00 00
 (1789637931.414323)  can0  601   [8]  40 01 18 01 00 00 00 00
 (1789637931.414648)  can0  581   [8]  43 01 18 01 81 02 00 00
 (1789637931.416277)  can0  000   [2]  01 01
 (1789637931.416593)  can0  181   [8]  40 14 40 14 00 00 00 00
 (1789637931.416783)  can0  281   [5]  03 00 00 00 00
 (1789637931.416883)  can0  381   [0] 
 (1789637931.416981)  can0  481   [0] 
 (1789637931.466658)  can0  181   [8]  40 14 40 14 00 00 00 00
 (1789637931.466785)  can0  281   [5]  03 00 00 00 00
 (1789637931.516668)  can0  181   [8]  40 14 40 14 00 00 00 00
 (1789637931.516794)  can0  281   [5]  03 00 00 00 00
 (1789637931.566677)  can0  181   [8]  40 14 40 14 00 00 00 00
 (1789637931.566810)  can0  281   [5]  03 00 00 00 00
 (1789637931.608208)  can0  701   [1]  05
 (1789637931.610448)  can0  601   [8]  23 FF 60 01 00 00 00 00
 (1789637931.610702)  can0  581   [8]  60 FF 60 01 00 00 00 00
 (1789637931.612387)  can0  601   [8]  40 FF 60 01 00 00 00 00
 (1789637931.612751)  can0  581   [8]  43 FF 60 01 00 00 00 00
 (1789637931.614404)  can0  601   [8]  23 FF 60 02 00 00 00 00
 (1789637931.614749)  can0  581   [8]  60 FF 60 02 00 00 00 00
 (1789637931.616381)  can0  601   [8]  40 FF 60 02 00 00 00 00
 (1789637931.616688)  can0  581   [8]  43 FF 60 02 00 00 00 00
 (1789637931.616929)  can0  181   [8]  40 14 40 14 00 00 00 00
 (1789637931.617121)  can0  281   [5]  03 00 00 00 00
 (1789637931.617415)  can0  601   [8]  2B 40 60 00 06 00 00 00
 (1789637931.617748)  can0  581   [8]  60 40 60 00 00 00 00 00
 (1789637931.619383)  can0  601   [8]  40 40 60 00 00 00 00 00
 (1789637931.619681)  can0  581   [8]  4B 40 60 00 06 00 00 00
 (1789637931.666807)  can0  181   [8]  21 14 21 14 00 00 00 00
 (1789637931.666943)  can0  281   [5]  03 00 00 00 00
 (1789637931.668409)  can0  601   [8]  40 00 14 01 00 00 00 00
 (1789637931.668745)  can0  581   [8]  43 00 14 01 01 02 00 00
 (1789637931.670408)  can0  601   [8]  40 00 14 02 00 00 00 00
 (1789637931.670685)  can0  581   [8]  4F 00 14 02 FF 00 00 00
 (1789637931.672395)  can0  601   [8]  40 00 16 00 00 00 00 00
 (1789637931.672740)  can0  581   [8]  4F 00 16 00 02 00 00 00
 (1789637931.674334)  can0  601   [8]  40 00 16 01 00 00 00 00
 (1789637931.674676)  can0  581   [8]  43 00 16 01 10 00 40 60
 (1789637931.676390)  can0  601   [8]  40 00 16 02 00 00 00 00
 (1789637931.676672)  can0  581   [8]  43 00 16 02 20 03 FF 60
 (1789637931.678396)  can0  601   [8]  40 00 18 01 00 00 00 00
 (1789637931.678724)  can0  581   [8]  43 00 18 01 81 01 00 00
 (1789637931.680389)  can0  601   [8]  40 00 18 02 00 00 00 00
 (1789637931.680663)  can0  581   [8]  4F 00 18 02 FF 00 00 00
 (1789637931.682391)  can0  601   [8]  40 00 1A 00 00 00 00 00
 (1789637931.682662)  can0  581   [8]  4F 00 1A 00 02 00 00 00
 (1789637931.684334)  can0  601   [8]  40 00 1A 01 00 00 00 00
 (1789637931.684650)  can0  581   [8]  43 00 1A 01 20 00 41 60
 (1789637931.686336)  can0  601   [8]  40 00 1A 02 00 00 00 00
 (1789637931.686644)  can0  581   [8]  43 00 1A 02 20 03 6C 60
 (1789637931.688390)  can0  601   [8]  40 01 18 01 00 00 00 00
 (1789637931.688701)  can0  581   [8]  43 01 18 01 81 02 00 00
 (1789637931.690385)  can0  601   [8]  40 01 18 02 00 00 00 00
 (1789637931.690641)  can0  581   [8]  4F 01 18 02 FF 00 00 00
 (1789637931.692391)  can0  601   [8]  40 01 1A 00 00 00 00 00
 (1789637931.692699)  can0  581   [8]  4F 01 1A 00 02 00 00 00
 (1789637931.694335)  can0  601   [8]  40 01 1A 01 00 00 00 00
 (1789637931.694744)  can0  581   [8]  43 01 1A 01 08 00 61 60
 (1789637931.696390)  can0  601   [8]  40 01 1A 02 00 00 00 00
 (1789637931.696685)  can0  581   [8]  43 01 1A 02 20 00 3F 60
 (1789637931.698394)  can0  601   [8]  40 0F 20 00 00 00 00 00
 (1789637931.698740)  can0  581   [8]  4B 0F 20 00 01 00 00 00
 (1789637931.716760)  can0  181   [8]  21 14 21 14 00 00 00 00
 (1789637931.716902)  can0  281   [5]  03 00 00 00 00
 (1789637931.742284)  can0  201   [6]  02 00 00 00 00 00
 (1789637931.753306)  can0  201   [6]  02 00 00 00 00 00
 (1789637931.763286)  can0  201   [6]  02 00 00 00 00 00
 (1789637931.766714)  can0  181   [8]  60 14 60 14 00 00 00 00
 (1789637931.766913)  can0  281   [5]  03 00 00 00 00
 (1789637931.773469)  can0  201   [6]  02 00 00 00 00 00
 (1789637931.783407)  can0  201   [6]  02 00 00 00 00 00
 (1789637931.793402)  can0  201   [6]  02 00 00 00 00 00
 (1789637931.803398)  can0  201   [6]  02 00 00 00 00 00
 (1789637931.813404)  can0  201   [6]  02 00 00 00 00 00
 (1789637931.816783)  can0  181   [8]  60 14 60 14 00 00 00 00
 (1789637931.816923)  can0  281   [5]  03 00 00 00 00
 (1789637931.823397)  can0  201   [6]  02 00 00 00 00 00
 (1789637931.833404)  can0  201   [6]  02 00 00 00 00 00
 (1789637931.843398)  can0  201   [6]  02 00 00 00 00 00
 (1789637931.853404)  can0  201   [6]  02 00 00 00 00 00
 (1789637931.857751)  can0  701   [1]  05
 (1789637931.863400)  can0  201   [6]  02 00 00 00 00 00
 (1789637931.866789)  can0  181   [8]  60 14 60 14 00 00 00 00
 (1789637931.866933)  can0  281   [5]  03 00 00 00 00
 (1789637931.873399)  can0  201   [6]  02 00 00 00 00 00
 (1789637931.883405)  can0  201   [6]  02 00 00 00 00 00
 (1789637931.893399)  can0  201   [6]  02 00 00 00 00 00
 (1789637931.903404)  can0  201   [6]  02 00 00 00 00 00
 (1789637931.913397)  can0  201   [6]  02 00 00 00 00 00
 (1789637931.916799)  can0  181   [8]  60 14 60 14 00 00 00 00
 (1789637931.916942)  can0  281   [5]  03 00 00 00 00
 (1789637931.923402)  can0  201   [6]  02 00 00 00 00 00
 (1789637931.933412)  can0  201   [6]  02 00 00 00 00 00
 (1789637931.943405)  can0  201   [6]  02 00 00 00 00 00
 (1789637931.953523)  can0  201   [6]  02 00 00 00 00 00
 (1789637931.963452)  can0  201   [6]  02 00 00 00 00 00
 (1789637931.966809)  can0  181   [8]  60 14 60 14 00 00 00 00
 (1789637931.966951)  can0  281   [5]  03 00 00 00 00
 (1789637931.973522)  can0  201   [6]  02 00 00 00 00 00
 (1789637931.983477)  can0  201   [6]  02 00 00 00 00 00
 (1789637931.993513)  can0  201   [6]  02 00 00 00 00 00
 (1789637932.003453)  can0  201   [6]  02 00 00 00 00 00
 (1789637932.013516)  can0  201   [6]  02 00 00 00 00 00
 (1789637932.016824)  can0  181   [8]  60 14 60 14 00 00 00 00
 (1789637932.016961)  can0  281   [5]  03 00 00 00 00
 (1789637932.023468)  can0  201   [6]  02 00 00 00 00 00
 (1789637932.033581)  can0  201   [6]  02 00 00 00 00 00
 (1789637932.043515)  can0  201   [6]  02 00 00 00 00 00
 (1789637932.053461)  can0  201   [6]  02 00 00 00 00 00
 (1789637932.063538)  can0  201   [6]  02 00 00 00 00 00
 (1789637932.066831)  can0  181   [8]  60 14 60 14 00 00 00 00
 (1789637932.066973)  can0  281   [5]  03 00 00 00 00
 (1789637932.073477)  can0  201   [6]  02 00 00 00 00 00
 (1789637932.083474)  can0  201   [6]  02 00 00 00 00 00
 (1789637932.093493)  can0  201   [6]  02 00 00 00 00 00
 (1789637932.103518)  can0  201   [6]  02 00 00 00 00 00
 (1789637932.107300)  can0  701   [1]  05
 (1789637932.113474)  can0  201   [6]  02 00 00 00 00 00
 (1789637932.116836)  can0  181   [8]  60 14 60 14 00 00 00 00
 (1789637932.116979)  can0  281   [5]  03 00 00 00 00
 (1789637932.123461)  can0  201   [6]  02 00 00 00 00 00
 (1789637932.133453)  can0  201   [6]  02 00 00 00 00 00
 (1789637932.143442)  can0  201   [6]  02 00 00 00 00 00
 (1789637932.153465)  can0  201   [6]  02 00 00 00 00 00
 (1789637932.163429)  can0  201   [6]  02 00 00 00 00 00
 (1789637932.166849)  can0  181   [8]  60 14 60 14 00 00 00 00
 (1789637932.166989)  can0  281   [5]  03 00 00 00 00
 (1789637932.173403)  can0  201   [6]  02 00 00 00 00 00
 (1789637932.183405)  can0  201   [6]  02 00 00 00 00 00
 (1789637932.193399)  can0  201   [6]  02 00 00 00 00 00
 (1789637932.203405)  can0  201   [6]  02 00 00 00 00 00
 (1789637932.213399)  can0  201   [6]  02 00 00 00 00 00
 (1789637932.216856)  can0  181   [8]  60 14 60 14 00 00 00 00
 (1789637932.217057)  can0  281   [5]  03 00 00 00 00
 (1789637932.223398)  can0  201   [6]  02 00 00 00 00 00
 (1789637932.233404)  can0  201   [6]  02 00 00 00 00 00
 (1789637932.243399)  can0  201   [6]  02 00 00 00 00 00
 (1789637932.253403)  can0  201   [6]  02 00 00 00 00 00
 (1789637932.263398)  can0  201   [6]  02 00 00 00 00 00
 (1789637932.266865)  can0  181   [8]  60 14 60 14 00 00 00 00
 (1789637932.267008)  can0  281   [5]  03 00 00 00 00
 (1789637932.273401)  can0  201   [6]  02 00 00 00 00 00
 (1789637932.283398)  can0  201   [6]  02 00 00 00 00 00
 (1789637932.293398)  can0  201   [6]  02 00 00 00 00 00
 (1789637932.303404)  can0  201   [6]  02 00 00 00 00 00
 (1789637932.313523)  can0  201   [6]  02 00 00 00 00 00
 (1789637932.316876)  can0  181   [8]  60 14 60 14 00 00 00 00
 (1789637932.317018)  can0  281   [5]  03 00 00 00 00
 (1789637932.323425)  can0  201   [6]  02 00 00 00 00 00
 (1789637932.333403)  can0  201   [6]  02 00 00 00 00 00
 (1789637932.343403)  can0  201   [6]  02 00 00 00 00 00
 (1789637932.353398)  can0  201   [6]  02 00 00 00 00 00
 (1789637932.356786)  can0  701   [1]  05
 (1789637932.363397)  can0  201   [6]  02 00 00 00 00 00
 (1789637932.366885)  can0  181   [8]  60 14 60 14 00 00 00 00
 (1789637932.367027)  can0  281   [5]  03 00 00 00 00
 (1789637932.373405)  can0  201   [6]  02 00 00 00 00 00
 (1789637932.383401)  can0  201   [6]  02 00 00 00 00 00
 (1789637932.393404)  can0  201   [6]  02 00 00 00 00 00
 (1789637932.403342)  can0  201   [6]  02 00 00 00 00 00
 (1789637932.413403)  can0  201   [6]  02 00 00 00 00 00
 (1789637932.416897)  can0  181   [8]  60 14 60 14 00 00 00 00
 (1789637932.417095)  can0  281   [5]  03 00 00 00 00
 (1789637932.423397)  can0  201   [6]  02 00 00 00 00 00
 (1789637932.433400)  can0  201   [6]  02 00 00 00 00 00
 (1789637932.443404)  can0  201   [6]  02 00 00 00 00 00
 (1789637932.453397)  can0  201   [6]  02 00 00 00 00 00
 (1789637932.463402)  can0  201   [6]  02 00 00 00 00 00
 (1789637932.466908)  can0  181   [8]  60 14 60 14 00 00 00 00
 (1789637932.467046)  can0  281   [5]  03 00 00 00 00
 (1789637932.473416)  can0  201   [6]  02 00 00 00 00 00
 (1789637932.483414)  can0  201   [6]  02 00 00 00 00 00
 (1789637932.493519)  can0  201   [6]  02 00 00 00 00 00
 (1789637932.503472)  can0  201   [6]  02 00 00 00 00 00
 (1789637932.513475)  can0  201   [6]  02 00 00 00 00 00
 (1789637932.516917)  can0  181   [8]  60 14 60 14 00 00 00 00
 (1789637932.517057)  can0  281   [5]  03 00 00 00 00
 (1789637932.523439)  can0  201   [6]  02 00 00 00 00 00
 (1789637932.533440)  can0  201   [6]  02 00 00 00 00 00
 (1789637932.543452)  can0  201   [6]  02 00 00 00 00 00
 (1789637932.553422)  can0  201   [6]  02 00 00 00 00 00
 (1789637932.563401)  can0  201   [6]  02 00 00 00 00 00
 (1789637932.566871)  can0  181   [8]  60 14 60 14 00 00 00 00
 (1789637932.567066)  can0  281   [5]  03 00 00 00 00
 (1789637932.573400)  can0  201   [6]  02 00 00 00 00 00
 (1789637932.583405)  can0  201   [6]  02 00 00 00 00 00
 (1789637932.593399)  can0  201   [6]  02 00 00 00 00 00
 (1789637932.603402)  can0  201   [6]  02 00 00 00 00 00
 (1789637932.606334)  can0  701   [1]  05
 (1789637932.613399)  can0  201   [6]  02 00 00 00 00 00
 (1789637932.616934)  can0  181   [8]  60 14 60 14 00 00 00 00
 (1789637932.617075)  can0  281   [5]  03 00 00 00 00
 (1789637932.623401)  can0  201   [6]  02 00 00 00 00 00
 (1789637932.633398)  can0  201   [6]  02 00 00 00 00 00
 (1789637932.643398)  can0  201   [6]  02 00 00 00 00 00
 (1789637932.653402)  can0  201   [6]  02 00 00 00 00 00
 (1789637932.663398)  can0  201   [6]  02 00 00 00 00 00
 (1789637932.666943)  can0  181   [8]  60 14 60 14 00 00 00 00
 (1789637932.667144)  can0  281   [5]  03 00 00 00 00
 (1789637932.673404)  can0  201   [6]  02 00 00 00 00 00
 (1789637932.683397)  can0  201   [6]  02 00 00 00 00 00
 (1789637932.693402)  can0  201   [6]  02 00 00 00 00 00
 (1789637932.703527)  can0  201   [6]  02 00 00 00 00 00
 (1789637932.713429)  can0  201   [6]  02 00 00 00 00 00
 (1789637932.716957)  can0  181   [8]  60 14 60 14 00 00 00 00
 (1789637932.717096)  can0  281   [5]  03 00 00 00 00
 (1789637932.723406)  can0  201   [6]  02 00 00 00 00 00
 (1789637932.733399)  can0  201   [6]  02 00 00 00 00 00
 (1789637932.743405)  can0  201   [6]  02 00 00 00 00 00
 (1789637932.753400)  can0  201   [6]  02 00 00 00 00 00
 (1789637932.763404)  can0  201   [6]  02 00 00 00 00 00
 (1789637932.766964)  can0  181   [8]  60 14 60 14 00 00 00 00
 (1789637932.767163)  can0  281   [5]  03 00 00 00 00
 (1789637932.773400)  can0  201   [6]  02 00 00 00 00 00
 (1789637932.783398)  can0  201   [6]  02 00 00 00 00 00
 (1789637932.793402)  can0  201   [6]  02 00 00 00 00 00
 (1789637932.803398)  can0  201   [6]  02 00 00 00 00 00
 (1789637932.813403)  can0  201   [6]  02 00 00 00 00 00
 (1789637932.816971)  can0  181   [8]  60 14 60 14 00 00 00 00
 (1789637932.817115)  can0  281   [5]  03 00 00 00 00
 (1789637932.823398)  can0  201   [6]  02 00 00 00 00 00
 (1789637932.833404)  can0  201   [6]  02 00 00 00 00 00
 (1789637932.843398)  can0  201   [6]  02 00 00 00 00 00
 (1789637932.853398)  can0  201   [6]  02 00 00 00 00 00
 (1789637932.855881)  can0  701   [1]  05
 (1789637932.863411)  can0  201   [6]  02 00 00 00 00 00
 (1789637932.866980)  can0  181   [8]  60 14 60 14 00 00 00 00
 (1789637932.867123)  can0  281   [5]  03 00 00 00 00
 (1789637932.873402)  can0  201   [6]  02 00 00 00 00 00
 (1789637932.883511)  can0  201   [6]  02 00 00 00 00 00
 (1789637932.893482)  can0  201   [6]  02 00 00 00 00 00
 (1789637932.903470)  can0  201   [6]  02 00 00 00 00 00
 (1789637932.913452)  can0  201   [6]  02 00 00 00 00 00
 (1789637932.916991)  can0  181   [8]  60 14 60 14 00 00 00 00
 (1789637932.917133)  can0  281   [5]  03 00 00 00 00
 (1789637932.923433)  can0  201   [6]  02 00 00 00 00 00
 (1789637932.933455)  can0  201   [6]  02 00 00 00 00 00
 (1789637932.943420)  can0  201   [6]  02 00 00 00 00 00
 (1789637932.953406)  can0  201   [6]  02 00 00 00 00 00
 (1789637932.963400)  can0  201   [6]  02 00 00 00 00 00
 (1789637932.967003)  can0  181   [8]  60 14 60 14 00 00 00 00
 (1789637932.967145)  can0  281   [5]  03 00 00 00 00
 (1789637932.973404)  can0  201   [6]  02 00 00 00 00 00
 (1789637932.983400)  can0  201   [6]  02 00 00 00 00 00
 (1789637932.993398)  can0  201   [6]  02 00 00 00 00 00
 (1789637933.003405)  can0  201   [6]  02 00 00 00 00 00
 (1789637933.013397)  can0  201   [6]  02 00 00 00 00 00
 (1789637933.017011)  can0  181   [8]  60 14 60 14 00 00 00 00
 (1789637933.017153)  can0  281   [5]  03 00 00 00 00
 (1789637933.023404)  can0  201   [6]  02 00 00 00 00 00
 (1789637933.033399)  can0  201   [6]  02 00 00 00 00 00
 (1789637933.043403)  can0  201   [6]  02 00 00 00 00 00
 (1789637933.053398)  can0  201   [6]  02 00 00 00 00 00
 (1789637933.063397)  can0  201   [6]  02 00 00 00 00 00
 (1789637933.067019)  can0  181   [8]  60 14 60 14 00 00 00 00
 (1789637933.067162)  can0  281   [5]  03 00 00 00 00
 (1789637933.073403)  can0  201   [6]  02 00 00 00 00 00
 (1789637933.083398)  can0  201   [6]  02 00 00 00 00 00
 (1789637933.093519)  can0  201   [6]  02 00 00 00 00 00
 (1789637933.103423)  can0  201   [6]  02 00 00 00 00 00
 (1789637933.105376)  can0  701   [1]  05
 (1789637933.113406)  can0  201   [6]  02 00 00 00 00 00
