 (1789103616.450893)  can0  601   [8]  40 17 10 00 00 00 00 00
 (1789103616.451218)  can0  581   [8]  4B 17 10 00 00 00 00 00
 (1789103616.452792)  can0  601   [8]  2B 17 10 00 F4 01 00 00
 (1789103616.453156)  can0  581   [8]  60 17 10 00 00 00 00 00
 (1789103616.454783)  can0  601   [8]  40 17 10 00 00 00 00 00
 (1789103616.455088)  can0  581   [8]  4B 17 10 00 F4 01 00 00
 (1789103616.702582)  can0  701   [1]  7F
 (1789103616.703801)  can0  601   [8]  40 00 18 01 00 00 00 00
 (1789103616.704140)  can0  581   [8]  43 00 18 01 81 01 00 00
 (1789103616.705784)  can0  601   [8]  40 00 18 02 00 00 00 00
 (1789103616.706136)  can0  581   [8]  4F 00 18 02 FF 00 00 00
 (1789103616.706768)  can0  601   [8]  40 00 18 05 00 00 00 00
 (1789103616.707078)  can0  581   [8]  4B 00 18 05 64 00 00 00
 (1789103616.708694)  can0  601   [8]  40 00 1A 00 00 00 00 00
 (1789103616.709013)  can0  581   [8]  4F 00 1A 00 02 00 00 00
 (1789103616.710689)  can0  601   [8]  40 00 1A 01 00 00 00 00
 (1789103616.711001)  can0  581   [8]  43 00 1A 01 20 00 41 60
 (1789103616.712693)  can0  601   [8]  40 00 1A 02 00 00 00 00
 (1789103616.712997)  can0  581   [8]  43 00 1A 02 20 03 6C 60
 (1789103616.714693)  can0  601   [8]  40 60 60 00 00 00 00 00
 (1789103616.715004)  can0  581   [8]  4F 60 60 00 03 00 00 00
 (1789103616.716691)  can0  601   [8]  40 61 60 00 00 00 00 00
 (1789103616.716998)  can0  581   [8]  4F 61 60 00 03 00 00 00
 (1789103616.718689)  can0  601   [8]  40 FF 60 01 00 00 00 00
 (1789103616.719048)  can0  581   [8]  43 FF 60 01 00 00 00 00
 (1789103616.720692)  can0  601   [8]  40 FF 60 02 00 00 00 00
 (1789103616.721047)  can0  581   [8]  43 FF 60 02 00 00 00 00
 (1789103616.722692)  can0  601   [8]  40 3F 60 00 00 00 00 00
 (1789103616.723041)  can0  581   [8]  43 3F 60 00 00 00 00 00
 (1789103616.724693)  can0  601   [8]  40 6C 60 01 00 00 00 00
 (1789103616.725033)  can0  581   [8]  43 6C 60 01 00 00 00 00
 (1789103616.726687)  can0  601   [8]  40 6C 60 02 00 00 00 00
 (1789103616.727030)  can0  581   [8]  43 6C 60 02 00 00 00 00
 (1789103616.727787)  can0  601   [8]  40 6C 60 03 00 00 00 00
 (1789103616.728144)  can0  581   [8]  43 6C 60 03 00 00 00 00
 (1789103616.729786)  can0  601   [8]  40 0F 20 00 00 00 00 00
 (1789103616.730144)  can0  581   [8]  4B 0F 20 00 01 00 00 00
 (1789103616.731781)  can0  601   [8]  40 00 14 01 00 00 00 00
 (1789103616.732080)  can0  581   [8]  43 00 14 01 01 02 00 00
 (1789103616.733781)  can0  601   [8]  40 00 14 02 00 00 00 00
 (1789103616.734076)  can0  581   [8]  4F 00 14 02 FF 00 00 00
 (1789103616.735720)  can0  601   [8]  40 00 14 05 00 00 00 00
 (1789103616.736126)  can0  581   [8]  4B 00 14 05 E8 03 00 00
 (1789103616.737780)  can0  601   [8]  40 00 16 00 00 00 00 00
 (1789103616.738129)  can0  581   [8]  4F 00 16 00 02 00 00 00
 (1789103616.739776)  can0  601   [8]  40 00 16 01 00 00 00 00
 (1789103616.740117)  can0  581   [8]  43 00 16 01 10 00 40 60
 (1789103616.741776)  can0  601   [8]  40 00 16 02 00 00 00 00
 (1789103616.742057)  can0  581   [8]  43 00 16 02 08 00 60 60
 (1789103616.743675)  can0  000   [2]  80 01
 (1789103616.952079)  can0  701   [1]  7F
 (1789103616.953786)  can0  601   [8]  23 00 14 01 01 02 00 80
 (1789103616.954136)  can0  581   [8]  60 00 14 01 00 00 00 00
 (1789103616.955773)  can0  601   [8]  40 00 14 01 00 00 00 00
 (1789103616.956127)  can0  581   [8]  43 00 14 01 01 02 00 80
 (1789103616.957777)  can0  601   [8]  2F 00 16 00 00 00 00 00
 (1789103616.958128)  can0  581   [8]  60 00 16 00 00 00 00 00
 (1789103616.959774)  can0  601   [8]  40 00 16 00 00 00 00 00
 (1789103616.960121)  can0  581   [8]  4F 00 16 00 00 00 00 00
 (1789103616.961712)  can0  601   [8]  23 00 16 01 10 00 40 60
 (1789103616.962061)  can0  581   [8]  60 00 16 01 00 00 00 00
 (1789103616.963770)  can0  601   [8]  40 00 16 01 00 00 00 00
 (1789103616.964049)  can0  581   [8]  43 00 16 01 10 00 40 60
 (1789103616.965715)  can0  601   [8]  23 00 16 02 20 03 FF 60
 (1789103616.966109)  can0  581   [8]  60 00 16 02 00 00 00 00
 (1789103616.967768)  can0  601   [8]  40 00 16 02 00 00 00 00
 (1789103616.968100)  can0  581   [8]  43 00 16 02 20 03 FF 60
 (1789103616.969774)  can0  601   [8]  2F 00 16 00 02 00 00 00
 (1789103616.970100)  can0  581   [8]  60 00 16 00 00 00 00 00
 (1789103616.971772)  can0  601   [8]  40 00 16 00 00 00 00 00
 (1789103616.972038)  can0  581   [8]  4F 00 16 00 02 00 00 00
 (1789103616.973774)  can0  601   [8]  23 00 14 01 01 02 00 00
 (1789103616.974032)  can0  581   [8]  60 00 14 01 00 00 00 00
 (1789103616.975712)  can0  601   [8]  40 00 14 01 00 00 00 00
 (1789103616.976081)  can0  581   [8]  43 00 14 01 01 02 00 00
 (1789103616.977787)  can0  601   [8]  23 FF 60 03 00 00 00 00
 (1789103616.978087)  can0  581   [8]  60 FF 60 03 00 00 00 00
 (1789103616.979775)  can0  601   [8]  40 FF 60 03 00 00 00 00
 (1789103616.980134)  can0  581   [8]  43 FF 60 03 00 00 00 00
 (1789103616.981783)  can0  601   [8]  23 FF 60 03 00 00 00 00
 (1789103616.982078)  can0  581   [8]  60 FF 60 03 00 00 00 00
 (1789103616.983774)  can0  601   [8]  40 FF 60 03 00 00 00 00
 (1789103616.984131)  can0  581   [8]  43 FF 60 03 00 00 00 00
 (1789103616.985670)  can0  000   [2]  01 01
 (1789103616.986003)  can0  181   [8]  21 14 21 14 00 00 00 00
 (1789103616.986114)  can0  281   [0] 
 (1789103616.986147)  can0  381   [0] 
 (1789103616.986245)  can0  481   [0] 
 (1789103617.036005)  can0  181   [8]  21 14 21 14 00 00 00 00
 (1789103617.085902)  can0  181   [8]  21 14 21 14 00 00 00 00
 (1789103617.135906)  can0  181   [8]  21 14 21 14 00 00 00 00
 (1789103617.185853)  can0  181   [8]  21 14 21 14 00 00 00 00
 (1789103617.201569)  can0  701   [1]  05
 (1789103617.203815)  can0  601   [8]  2F 60 60 00 03 00 00 00
 (1789103617.204131)  can0  581   [8]  60 60 60 00 00 00 00 00
 (1789103617.205789)  can0  601   [8]  40 61 60 00 00 00 00 00
 (1789103617.206118)  can0  581   [8]  4F 61 60 00 03 00 00 00
 (1789103617.207801)  can0  601   [8]  2B 40 60 00 06 00 00 00
 (1789103617.208064)  can0  581   [8]  60 40 60 00 00 00 00 00
 (1789103617.235800)  can0  181   [8]  21 14 21 14 00 00 00 00
 (1789103617.237730)  can0  601   [8]  40 6C 60 01 00 00 00 00
 (1789103617.238050)  can0  581   [8]  43 6C 60 01 00 00 00 00
 (1789103617.239777)  can0  601   [8]  40 6C 60 02 00 00 00 00
 (1789103617.240102)  can0  581   [8]  43 6C 60 02 00 00 00 00
 (1789103617.241776)  can0  601   [8]  40 6C 60 03 00 00 00 00
 (1789103617.242041)  can0  581   [8]  43 6C 60 03 00 00 00 00
 (1789103617.243787)  can0  601   [8]  2B 40 60 00 07 00 00 00
 (1789103617.244102)  can0  581   [8]  60 40 60 00 00 00 00 00
 (1789103617.285697)  can0  181   [8]  23 14 23 14 00 00 00 00
 (1789103617.287781)  can0  601   [8]  40 6C 60 01 00 00 00 00
 (1789103617.288054)  can0  581   [8]  43 6C 60 01 00 00 00 00
 (1789103617.289775)  can0  601   [8]  40 6C 60 02 00 00 00 00
 (1789103617.290107)  can0  581   [8]  43 6C 60 02 00 00 00 00
 (1789103617.291776)  can0  601   [8]  40 6C 60 03 00 00 00 00
 (1789103617.292045)  can0  581   [8]  43 6C 60 03 00 00 00 00
 (1789103617.293789)  can0  601   [8]  2B 40 60 00 0F 00 00 00
 (1789103617.294104)  can0  581   [8]  60 40 60 00 00 00 00 00
 (1789103617.335646)  can0  181   [8]  27 14 27 14 00 00 00 00
 (1789103617.337781)  can0  601   [8]  40 6C 60 01 00 00 00 00
 (1789103617.338120)  can0  581   [8]  43 6C 60 01 00 00 00 00
 (1789103617.339774)  can0  601   [8]  40 6C 60 02 00 00 00 00
 (1789103617.340116)  can0  581   [8]  43 6C 60 02 00 00 00 00
 (1789103617.341776)  can0  601   [8]  40 6C 60 03 00 00 00 00
 (1789103617.342055)  can0  581   [8]  43 6C 60 03 00 00 00 00
 (1789103617.343762)  can0  201   [6]  0F 00 00 00 05 00
 (1789103617.344009)  can0  601   [8]  40 FF 60 03 00 00 00 00
 (1789103617.344317)  can0  581   [8]  43 FF 60 03 00 00 05 00
 (1789103617.385594)  can0  181   [8]  27 14 27 44 00 00 10 00
 (1789103617.435540)  can0  181   [8]  27 14 27 44 00 00 33 00
 (1789103617.444785)  can0  601   [8]  40 6C 60 01 00 00 00 00
 (1789103617.445084)  can0  581   [8]  43 6C 60 01 00 00 00 00
 (1789103617.446784)  can0  601   [8]  40 6C 60 02 00 00 00 00
 (1789103617.447076)  can0  581   [8]  43 6C 60 02 33 00 00 00
 (1789103617.448784)  can0  601   [8]  40 6C 60 03 00 00 00 00
 (1789103617.449013)  can0  581   [8]  43 6C 60 03 00 00 33 00
 (1789103617.451119)  can0  701   [1]  05
 (1789103617.485487)  can0  181   [8]  27 14 27 44 00 00 31 00
 (1789103617.535435)  can0  181   [8]  27 14 27 44 00 00 2D 00
 (1789103617.585384)  can0  181   [8]  27 14 27 44 00 00 33 00
 (1789103617.635332)  can0  181   [8]  27 14 27 44 00 00 31 00
 (1789103617.685227)  can0  181   [8]  27 14 27 44 00 00 2E 00
 (1789103617.700614)  can0  701   [1]  05
 (1789103617.735230)  can0  181   [8]  27 14 27 44 00 00 31 00
 (1789103617.785181)  can0  181   [8]  27 14 27 44 00 00 36 00
 (1789103617.835131)  can0  181   [8]  27 14 27 44 00 00 30 00
 (1789103617.885078)  can0  181   [8]  27 14 27 44 00 00 34 00
 (1789103617.935023)  can0  181   [8]  27 14 27 44 00 00 2D 00
 (1789103617.944788)  can0  601   [8]  40 6C 60 01 00 00 00 00
 (1789103617.945069)  can0  581   [8]  43 6C 60 01 00 00 00 00
 (1789103617.946786)  can0  601   [8]  40 6C 60 02 00 00 00 00
 (1789103617.947063)  can0  581   [8]  43 6C 60 02 2E 00 00 00
 (1789103617.948793)  can0  601   [8]  40 6C 60 03 00 00 00 00
 (1789103617.949060)  can0  581   [8]  43 6C 60 03 00 00 2E 00
 (1789103617.950169)  can0  701   [1]  05
 (1789103617.984971)  can0  181   [8]  27 14 27 44 00 00 33 00
 (1789103618.034924)  can0  181   [8]  27 14 27 44 00 00 32 00
 (1789103618.084873)  can0  181   [8]  27 14 27 44 00 00 2E 00
 (1789103618.134818)  can0  181   [8]  27 14 27 44 00 00 31 00
 (1789103618.184768)  can0  181   [8]  27 14 27 44 00 00 36 00
 (1789103618.199663)  can0  701   [1]  05
 (1789103618.234719)  can0  181   [8]  27 14 27 44 00 00 30 00
 (1789103618.284668)  can0  181   [8]  27 14 27 44 00 00 35 00
 (1789103618.334612)  can0  181   [8]  27 14 27 44 00 00 2C 00
 (1789103618.384562)  can0  181   [8]  27 14 27 44 00 00 32 00
 (1789103618.434509)  can0  181   [8]  27 14 27 44 00 00 33 00
 (1789103618.449218)  can0  701   [1]  05
 (1789103618.452792)  can0  601   [8]  40 6C 60 01 00 00 00 00
 (1789103618.453141)  can0  581   [8]  43 6C 60 01 00 00 00 00
 (1789103618.454789)  can0  601   [8]  40 6C 60 02 00 00 00 00
 (1789103618.455134)  can0  581   [8]  43 6C 60 02 2E 00 00 00
 (1789103618.456786)  can0  601   [8]  40 6C 60 03 00 00 00 00
 (1789103618.457127)  can0  581   [8]  43 6C 60 03 00 00 2E 00
 (1789103618.484461)  can0  181   [8]  27 14 27 44 00 00 2E 00
 (1789103618.534411)  can0  181   [8]  27 14 27 44 00 00 30 00
 (1789103618.584359)  can0  181   [8]  27 14 27 44 00 00 36 00
 (1789103618.634301)  can0  181   [8]  27 14 27 44 00 00 31 00
 (1789103618.684253)  can0  181   [8]  27 14 27 44 00 00 32 00
 (1789103618.698710)  can0  701   [1]  05
 (1789103618.734201)  can0  181   [8]  27 14 27 44 00 00 2F 00
 (1789103618.784151)  can0  181   [8]  27 14 27 44 00 00 32 00
 (1789103618.834097)  can0  181   [8]  27 14 27 44 00 00 33 00
 (1789103618.884048)  can0  181   [8]  27 14 27 44 00 00 2D 00
 (1789103618.934002)  can0  181   [8]  27 14 27 44 00 00 30 00
 (1789103618.948267)  can0  701   [1]  05
 (1789103618.962792)  can0  601   [8]  40 6C 60 01 00 00 00 00
 (1789103618.963058)  can0  581   [8]  43 6C 60 01 00 00 00 00
 (1789103618.964788)  can0  601   [8]  40 6C 60 02 00 00 00 00
 (1789103618.965049)  can0  581   [8]  43 6C 60 02 33 00 00 00
 (1789103618.966785)  can0  601   [8]  40 6C 60 03 00 00 00 00
 (1789103618.967042)  can0  581   [8]  43 6C 60 03 00 00 33 00
 (1789103618.983947)  can0  181   [8]  27 14 27 44 00 00 35 00
 (1789103619.033893)  can0  181   [8]  27 14 27 44 00 00 32 00
 (1789103619.083842)  can0  181   [8]  27 14 27 44 00 00 32 00
 (1789103619.133791)  can0  181   [8]  27 14 27 44 00 00 2F 00
 (1789103619.183737)  can0  181   [8]  27 14 27 44 00 00 31 00
 (1789103619.197761)  can0  701   [1]  05
 (1789103619.233687)  can0  181   [8]  27 14 27 44 00 00 34 00
 (1789103619.283634)  can0  181   [8]  27 14 27 44 00 00 2D 00
 (1789103619.333586)  can0  181   [8]  27 14 27 44 00 00 30 00
 (1789103619.383531)  can0  181   [8]  27 14 27 44 00 00 34 00
 (1789103619.433481)  can0  181   [8]  27 14 27 44 00 00 33 00
 (1789103619.447318)  can0  701   [1]  05
 (1789103619.471786)  can0  601   [8]  40 6C 60 01 00 00 00 00
 (1789103619.472083)  can0  581   [8]  43 6C 60 01 00 00 00 00
 (1789103619.473786)  can0  601   [8]  40 6C 60 02 00 00 00 00
 (1789103619.474075)  can0  581   [8]  43 6C 60 02 31 00 00 00
 (1789103619.475788)  can0  601   [8]  40 6C 60 03 00 00 00 00
 (1789103619.476072)  can0  581   [8]  43 6C 60 03 00 00 31 00
 (1789103619.483430)  can0  181   [8]  27 14 27 44 00 00 32 00
 (1789103619.533382)  can0  181   [8]  27 14 27 44 00 00 30 00
 (1789103619.583329)  can0  181   [8]  27 14 27 44 00 00 30 00
 (1789103619.633277)  can0  181   [8]  27 14 27 44 00 00 35 00
 (1789103619.683225)  can0  181   [8]  27 14 27 44 00 00 2B 00
 (1789103619.696811)  can0  701   [1]  05
 (1789103619.733174)  can0  181   [8]  27 14 27 44 00 00 30 00
 (1789103619.783120)  can0  181   [8]  27 14 27 44 00 00 33 00
 (1789103619.833070)  can0  181   [8]  27 14 27 44 00 00 32 00
 (1789103619.883018)  can0  181   [8]  27 14 27 44 00 00 32 00
 (1789103619.932965)  can0  181   [8]  27 14 27 44 00 00 32 00
 (1789103619.946368)  can0  701   [1]  05
 (1789103619.981796)  can0  601   [8]  40 6C 60 01 00 00 00 00
 (1789103619.982042)  can0  581   [8]  43 6C 60 01 00 00 00 00
 (1789103619.982915)  can0  181   [8]  27 14 27 44 00 00 2E 00
 (1789103619.983272)  can0  601   [8]  40 6C 60 02 00 00 00 00
 (1789103619.983537)  can0  581   [8]  43 6C 60 02 2E 00 00 00
 (1789103619.984790)  can0  601   [8]  40 6C 60 03 00 00 00 00
 (1789103619.985035)  can0  581   [8]  43 6C 60 03 00 00 2F 00
 (1789103620.032865)  can0  181   [8]  27 14 27 44 00 00 34 00
 (1789103620.082811)  can0  181   [8]  27 14 27 44 00 00 2D 00
 (1789103620.132761)  can0  181   [8]  27 14 27 44 00 00 2F 00
 (1789103620.182709)  can0  181   [8]  27 14 27 44 00 00 33 00
 (1789103620.195857)  can0  701   [1]  05
 (1789103620.232659)  can0  181   [8]  27 14 27 44 00 00 33 00
 (1789103620.282607)  can0  181   [8]  27 14 27 44 00 00 32 00
 (1789103620.332558)  can0  181   [8]  27 14 27 44 00 00 32 00
 (1789103620.344756)  can0  201   [6]  06 00 00 00 00 00
 (1789103620.345001)  can0  601   [8]  40 FF 60 03 00 00 00 00
 (1789103620.345287)  can0  581   [8]  43 FF 60 03 00 00 00 00
 (1789103620.345799)  can0  601   [8]  23 FF 60 03 00 00 00 00
 (1789103620.346209)  can0  581   [8]  60 FF 60 03 00 00 00 00
 (1789103620.347767)  can0  601   [8]  40 FF 60 03 00 00 00 00
 (1789103620.348025)  can0  581   [8]  43 FF 60 03 00 00 00 00
 (1789103620.349786)  can0  601   [8]  23 FF 60 03 00 00 00 00
 (1789103620.350139)  can0  581   [8]  60 FF 60 03 00 00 00 00
 (1789103620.351768)  can0  601   [8]  40 FF 60 03 00 00 00 00
 (1789103620.352022)  can0  581   [8]  43 FF 60 03 00 00 00 00
 (1789103620.353790)  can0  601   [8]  2B 40 60 00 06 00 00 00
 (1789103620.354130)  can0  581   [8]  60 40 60 00 00 00 00 00
 (1789103620.382558)  can0  181   [8]  21 14 21 14 00 00 08 00
 (1789103620.432503)  can0  181   [8]  21 14 21 14 00 00 F6 FF
 (1789103620.445419)  can0  701   [1]  05
 (1789103620.482453)  can0  181   [8]  21 14 21 14 00 00 04 00
 (1789103620.532402)  can0  181   [8]  21 14 21 14 00 00 FF FF
 (1789103620.582352)  can0  181   [8]  21 14 21 14 00 00 FF FF
 (1789103620.632303)  can0  181   [8]  21 14 21 14 00 00 FF FF
 (1789103620.682250)  can0  181   [8]  21 14 21 14 00 00 00 00
 (1789103620.682800)  can0  601   [8]  40 6C 60 01 00 00 00 00
 (1789103620.683123)  can0  581   [8]  43 6C 60 01 00 00 00 00
 (1789103620.684776)  can0  601   [8]  40 6C 60 02 00 00 00 00
 (1789103620.685062)  can0  581   [8]  43 6C 60 02 00 00 00 00
 (1789103620.686775)  can0  601   [8]  40 6C 60 03 00 00 00 00
 (1789103620.687113)  can0  581   [8]  43 6C 60 03 00 00 00 00
 (1789103620.688667)  can0  000   [2]  80 01
 (1789103620.694912)  can0  701   [1]  7F
 (1789103620.696778)  can0  601   [8]  23 00 14 01 01 02 00 80
 (1789103620.697096)  can0  581   [8]  60 00 14 01 00 00 00 00
 (1789103620.698772)  can0  601   [8]  40 00 14 01 00 00 00 00
 (1789103620.699029)  can0  581   [8]  43 00 14 01 01 02 00 80
 (1789103620.700776)  can0  601   [8]  2F 00 16 00 00 00 00 00
 (1789103620.701089)  can0  581   [8]  60 00 16 00 00 00 00 00
 (1789103620.702751)  can0  601   [8]  40 00 16 00 00 00 00 00
 (1789103620.703091)  can0  581   [8]  4F 00 16 00 00 00 00 00
 (1789103620.704770)  can0  601   [8]  23 00 16 01 10 00 40 60
 (1789103620.705031)  can0  581   [8]  60 00 16 01 00 00 00 00
 (1789103620.706769)  can0  601   [8]  40 00 16 01 00 00 00 00
 (1789103620.707018)  can0  581   [8]  43 00 16 01 10 00 40 60
 (1789103620.708694)  can0  601   [8]  23 00 16 02 08 00 60 60
 (1789103620.709011)  can0  581   [8]  60 00 16 02 00 00 00 00
 (1789103620.710688)  can0  601   [8]  40 00 16 02 00 00 00 00
 (1789103620.711001)  can0  581   [8]  43 00 16 02 08 00 60 60
 (1789103620.712689)  can0  601   [8]  2F 00 16 00 02 00 00 00
 (1789103620.713003)  can0  581   [8]  60 00 16 00 00 00 00 00
 (1789103620.714691)  can0  601   [8]  40 00 16 00 00 00 00 00
 (1789103620.715006)  can0  581   [8]  4F 00 16 00 02 00 00 00
 (1789103620.716689)  can0  601   [8]  23 00 14 01 01 02 00 00
 (1789103620.717050)  can0  581   [8]  60 00 14 01 00 00 00 00
 (1789103620.718689)  can0  601   [8]  40 00 14 01 00 00 00 00
 (1789103620.719044)  can0  581   [8]  43 00 14 01 01 02 00 00
 (1789103620.720690)  can0  601   [8]  2B 17 10 00 00 00 00 00
 (1789103620.721046)  can0  581   [8]  60 17 10 00 00 00 00 00
 (1789103620.722686)  can0  601   [8]  40 17 10 00 00 00 00 00
 (1789103620.723037)  can0  581   [8]  4B 17 10 00 00 00 00 00
