 (1789436114.227138)  can0  601   [8]  40 41 60 00 00 00 00 00
 (1789436114.227453)  can0  581   [8]  43 41 60 00 00 14 00 14
 (1789436114.229094)  can0  601   [8]  40 60 60 00 00 00 00 00
 (1789436114.229454)  can0  581   [8]  4F 60 60 00 03 00 00 00
 (1789436114.231083)  can0  601   [8]  40 61 60 00 00 00 00 00
 (1789436114.231385)  can0  581   [8]  4F 61 60 00 03 00 00 00
 (1789436114.233085)  can0  601   [8]  40 FF 60 01 00 00 00 00
 (1789436114.233447)  can0  581   [8]  43 FF 60 01 00 00 00 00
 (1789436114.235085)  can0  601   [8]  40 FF 60 02 00 00 00 00
 (1789436114.235445)  can0  581   [8]  43 FF 60 02 00 00 00 00
 (1789436114.237087)  can0  601   [8]  40 3F 60 00 00 00 00 00
 (1789436114.237438)  can0  581   [8]  43 3F 60 00 00 00 00 00
 (1789436114.239086)  can0  601   [8]  40 6C 60 01 00 00 00 00
 (1789436114.239430)  can0  581   [8]  43 6C 60 01 00 00 00 00
 (1789436114.241081)  can0  601   [8]  40 6C 60 02 00 00 00 00
 (1789436114.241427)  can0  581   [8]  43 6C 60 02 00 00 00 00
 (1789436114.243084)  can0  601   [8]  40 6C 60 03 00 00 00 00
 (1789436114.243421)  can0  581   [8]  43 6C 60 03 00 00 00 00
 (1789436114.245083)  can0  601   [8]  40 17 10 00 00 00 00 00
 (1789436114.245419)  can0  581   [8]  4B 17 10 00 00 00 00 00
 (1789436114.247087)  can0  601   [8]  40 00 18 01 00 00 00 00
 (1789436114.247414)  can0  581   [8]  43 00 18 01 81 01 00 00
 (1789436114.249082)  can0  601   [8]  40 00 18 02 00 00 00 00
 (1789436114.249408)  can0  581   [8]  4F 00 18 02 FF 00 00 00
 (1789436114.251081)  can0  601   [8]  40 00 18 05 00 00 00 00
 (1789436114.251406)  can0  581   [8]  4B 00 18 05 64 00 00 00
 (1789436114.253084)  can0  601   [8]  40 00 1A 00 00 00 00 00
 (1789436114.253405)  can0  581   [8]  4F 00 1A 00 02 00 00 00
 (1789436114.255082)  can0  601   [8]  40 00 1A 01 00 00 00 00
 (1789436114.255392)  can0  581   [8]  43 00 1A 01 20 00 41 60
 (1789436114.257088)  can0  601   [8]  40 00 1A 02 00 00 00 00
 (1789436114.257444)  can0  581   [8]  43 00 1A 02 20 03 6C 60
 (1789436114.259083)  can0  601   [8]  2B 17 10 00 F4 01 00 00
 (1789436114.259453)  can0  581   [8]  60 17 10 00 00 00 00 00
 (1789436114.261083)  can0  601   [8]  40 17 10 00 00 00 00 00
 (1789436114.261442)  can0  581   [8]  4B 17 10 00 F4 01 00 00
 (1789436114.262979)  can0  000   [2]  80 01
 (1789436114.508834)  can0  701   [1]  7F
 (1789436114.509979)  can0  000   [2]  01 01
 (1789436114.510385)  can0  181   [8]  00 14 00 14 00 00 00 00
 (1789436114.510485)  can0  281   [0] 
 (1789436114.510585)  can0  381   [0] 
 (1789436114.510624)  can0  481   [0] 
 (1789436114.560337)  can0  181   [8]  00 14 00 14 00 00 00 00
 (1789436114.610352)  can0  181   [8]  00 14 00 14 00 00 00 00
 (1789436114.660363)  can0  181   [8]  00 14 00 14 00 00 00 00
 (1789436114.710379)  can0  181   [8]  00 14 00 14 00 00 00 00
 (1789436114.758392)  can0  701   [1]  05
 (1789436114.759089)  can0  601   [8]  40 41 60 00 00 00 00 00
 (1789436114.759447)  can0  581   [8]  43 41 60 00 00 14 00 14
 (1789436114.760390)  can0  181   [8]  00 14 00 14 00 00 00 00
 (1789436114.771103)  can0  601   [8]  40 41 60 00 00 00 00 00
 (1789436114.771422)  can0  581   [8]  43 41 60 00 00 14 00 14
 (1789436114.773085)  can0  601   [8]  40 6C 60 01 00 00 00 00
 (1789436114.773421)  can0  581   [8]  43 6C 60 01 00 00 00 00
 (1789436114.775085)  can0  601   [8]  40 6C 60 02 00 00 00 00
 (1789436114.775416)  can0  581   [8]  43 6C 60 02 00 00 00 00
 (1789436114.777083)  can0  601   [8]  40 6C 60 03 00 00 00 00
 (1789436114.777353)  can0  581   [8]  43 6C 60 03 00 00 00 00
 (1789436114.810403)  can0  181   [8]  00 14 00 14 00 00 00 00
 (1789436114.860417)  can0  181   [8]  00 14 00 14 00 00 00 00
 (1789436114.910429)  can0  181   [8]  00 14 00 14 00 00 00 00
 (1789436114.960442)  can0  181   [8]  00 14 00 14 00 00 00 00
 (1789436115.007898)  can0  701   [1]  05
 (1789436115.010459)  can0  181   [8]  00 14 00 14 00 00 00 00
 (1789436115.060468)  can0  181   [8]  00 14 00 14 00 00 00 00
 (1789436115.110478)  can0  181   [8]  00 14 00 14 00 00 00 00
 (1789436115.160493)  can0  181   [8]  00 14 00 14 00 00 00 00
 (1789436115.210506)  can0  181   [8]  00 14 00 14 00 00 00 00
 (1789436115.257461)  can0  701   [1]  05
 (1789436115.260519)  can0  181   [8]  00 14 00 14 00 00 00 00
 (1789436115.310532)  can0  181   [8]  00 14 00 14 00 00 00 00
 (1789436115.360543)  can0  181   [8]  00 14 00 14 00 00 00 00
 (1789436115.410559)  can0  181   [8]  00 14 00 14 00 00 00 00
 (1789436115.460570)  can0  181   [8]  00 14 00 14 00 00 00 00
 (1789436115.506966)  can0  701   [1]  05
 (1789436115.510586)  can0  181   [8]  00 14 00 14 00 00 00 00
 (1789436115.560596)  can0  181   [8]  00 14 00 14 00 00 00 00
 (1789436115.610608)  can0  181   [8]  00 14 00 14 00 00 00 00
 (1789436115.660622)  can0  181   [8]  00 14 00 14 00 00 00 00
 (1789436115.710634)  can0  181   [8]  00 14 00 14 00 00 00 00
 (1789436115.756528)  can0  701   [1]  05
 (1789436115.760649)  can0  181   [8]  00 14 00 14 00 00 00 00
 (1789436115.776109)  can0  601   [8]  40 41 60 00 00 00 00 00
 (1789436115.776419)  can0  581   [8]  43 41 60 00 00 14 00 14
 (1789436115.778087)  can0  601   [8]  40 6C 60 01 00 00 00 00
 (1789436115.778417)  can0  581   [8]  43 6C 60 01 00 00 00 00
 (1789436115.780085)  can0  601   [8]  40 6C 60 02 00 00 00 00
 (1789436115.780412)  can0  581   [8]  43 6C 60 02 00 00 00 00
 (1789436115.782085)  can0  601   [8]  40 6C 60 03 00 00 00 00
 (1789436115.782408)  can0  581   [8]  43 6C 60 03 00 00 00 00
 (1789436115.810660)  can0  181   [8]  00 14 00 14 00 00 00 00
 (1789436115.860674)  can0  181   [8]  00 14 00 14 00 00 00 00
 (1789436115.910686)  can0  181   [8]  00 14 00 14 00 00 00 00
 (1789436115.960700)  can0  181   [8]  00 14 00 14 00 00 00 00
 (1789436116.006034)  can0  701   [1]  05
 (1789436116.010713)  can0  181   [8]  00 14 00 14 00 00 00 00
 (1789436116.060725)  can0  181   [8]  00 14 00 14 00 00 00 00
 (1789436116.110738)  can0  181   [8]  00 14 00 14 00 00 00 00
 (1789436116.160751)  can0  181   [8]  00 14 00 14 00 00 00 00
 (1789436116.210765)  can0  181   [8]  00 14 00 14 00 00 00 00
 (1789436116.255599)  can0  701   [1]  05
 (1789436116.260775)  can0  181   [8]  00 14 00 14 00 00 00 00
 (1789436116.310791)  can0  181   [8]  00 14 00 14 00 00 00 00
 (1789436116.360801)  can0  181   [8]  00 14 00 14 00 00 00 00
 (1789436116.410816)  can0  181   [8]  00 14 00 14 00 00 00 00
 (1789436116.460827)  can0  181   [8]  00 14 00 14 00 00 00 00
 (1789436116.505102)  can0  701   [1]  05
 (1789436116.510840)  can0  181   [8]  00 14 00 14 00 00 00 00
 (1789436116.560854)  can0  181   [8]  00 14 00 14 00 00 00 00
 (1789436116.610866)  can0  181   [8]  00 14 00 14 00 00 00 00
 (1789436116.660879)  can0  181   [8]  00 14 00 14 00 00 00 00
 (1789436116.710892)  can0  181   [8]  00 14 00 14 00 00 00 00
 (1789436116.754667)  can0  701   [1]  05
 (1789436116.760905)  can0  181   [8]  00 14 00 14 00 00 00 00
 (1789436116.782104)  can0  601   [8]  40 41 60 00 00 00 00 00
 (1789436116.782414)  can0  581   [8]  43 41 60 00 00 14 00 14
 (1789436116.784088)  can0  601   [8]  40 6C 60 01 00 00 00 00
 (1789436116.784410)  can0  581   [8]  43 6C 60 01 00 00 00 00
 (1789436116.786083)  can0  601   [8]  40 6C 60 02 00 00 00 00
 (1789436116.786408)  can0  581   [8]  43 6C 60 02 00 00 00 00
 (1789436116.788084)  can0  601   [8]  40 6C 60 03 00 00 00 00
 (1789436116.788403)  can0  581   [8]  43 6C 60 03 00 00 00 00
 (1789436116.810918)  can0  181   [8]  00 14 00 14 00 00 00 00
 (1789436116.860931)  can0  181   [8]  00 14 00 14 00 00 00 00
 (1789436116.910944)  can0  181   [8]  00 14 00 14 00 00 00 00
 (1789436116.960956)  can0  181   [8]  00 14 00 14 00 00 00 00
 (1789436117.004169)  can0  701   [1]  05
 (1789436117.010969)  can0  181   [8]  00 14 00 14 00 00 00 00
 (1789436117.060983)  can0  181   [8]  00 14 00 14 00 00 00 00
 (1789436117.110995)  can0  181   [8]  00 14 00 14 00 00 00 00
 (1789436117.161009)  can0  181   [8]  00 14 00 14 00 00 00 00
 (1789436117.211022)  can0  181   [8]  00 14 00 14 00 00 00 00
 (1789436117.253735)  can0  701   [1]  05
 (1789436117.261032)  can0  181   [8]  00 14 00 14 00 00 00 00
 (1789436117.311048)  can0  181   [8]  00 14 00 14 00 00 00 00
 (1789436117.361059)  can0  181   [8]  00 14 00 14 00 00 00 00
 (1789436117.411073)  can0  181   [8]  00 14 00 14 00 00 00 00
 (1789436117.461085)  can0  181   [8]  00 14 00 14 00 00 00 00
 (1789436117.503238)  can0  701   [1]  05
 (1789436117.511096)  can0  181   [8]  00 14 00 14 00 00 00 00
 (1789436117.561112)  can0  181   [8]  00 14 00 14 00 00 00 00
 (1789436117.611123)  can0  181   [8]  00 14 00 14 00 00 00 00
 (1789436117.661135)  can0  181   [8]  00 94 00 14 00 00 00 00
 (1789436117.711083)  can0  181   [8]  00 94 00 14 00 00 00 00
 (1789436117.752801)  can0  701   [1]  05
 (1789436117.761035)  can0  181   [8]  00 94 00 14 00 00 00 00
 (1789436117.788100)  can0  601   [8]  40 41 60 00 00 00 00 00
 (1789436117.788405)  can0  581   [8]  43 41 60 00 00 94 00 14
 (1789436117.790087)  can0  601   [8]  40 6C 60 01 00 00 00 00
 (1789436117.790399)  can0  581   [8]  43 6C 60 01 00 00 00 00
 (1789436117.792081)  can0  601   [8]  40 6C 60 02 00 00 00 00
 (1789436117.792394)  can0  581   [8]  43 6C 60 02 00 00 00 00
 (1789436117.794083)  can0  601   [8]  40 6C 60 03 00 00 00 00
 (1789436117.794391)  can0  581   [8]  43 6C 60 03 00 00 00 00
 (1789436117.810988)  can0  181   [8]  00 94 00 14 00 00 00 00
 (1789436117.860936)  can0  181   [8]  00 94 00 14 00 00 00 00
 (1789436117.910886)  can0  181   [8]  00 94 00 14 00 00 00 00
 (1789436117.960835)  can0  181   [8]  00 94 00 14 00 00 00 00
 (1789436118.002302)  can0  701   [1]  05
 (1789436118.010786)  can0  181   [8]  00 94 00 14 00 00 00 00
 (1789436118.060736)  can0  181   [8]  00 94 00 14 00 00 00 00
 (1789436118.110687)  can0  181   [8]  00 94 00 14 00 00 00 00
 (1789436118.160639)  can0  181   [8]  00 94 00 14 00 00 00 00
 (1789436118.210588)  can0  181   [8]  00 94 00 14 00 00 00 00
 (1789436118.251867)  can0  701   [1]  05
 (1789436118.260539)  can0  181   [8]  00 94 00 14 00 00 00 00
 (1789436118.310489)  can0  181   [8]  00 94 00 14 00 00 00 00
 (1789436118.360440)  can0  181   [8]  00 94 00 14 00 00 00 00
 (1789436118.410390)  can0  181   [8]  00 94 00 14 00 00 00 00
 (1789436118.460343)  can0  181   [8]  00 94 00 14 00 00 00 00
 (1789436118.501371)  can0  701   [1]  05
 (1789436118.510291)  can0  181   [8]  00 94 00 14 00 00 00 00
 (1789436118.560243)  can0  181   [8]  00 94 00 14 00 00 00 00
 (1789436118.610191)  can0  181   [8]  00 94 00 14 00 00 00 00
 (1789436118.660142)  can0  181   [8]  00 94 00 14 00 00 00 00
 (1789436118.710093)  can0  181   [8]  00 94 00 14 00 00 00 00
 (1789436118.750936)  can0  701   [1]  05
 (1789436118.760046)  can0  181   [8]  00 94 00 14 00 00 00 00
 (1789436118.795099)  can0  601   [8]  40 41 60 00 00 00 00 00
 (1789436118.795403)  can0  581   [8]  43 41 60 00 00 94 00 14
 (1789436118.797085)  can0  601   [8]  40 6C 60 01 00 00 00 00
 (1789436118.797391)  can0  581   [8]  43 6C 60 01 00 00 00 00
 (1789436118.799081)  can0  601   [8]  40 6C 60 02 00 00 00 00
 (1789436118.799387)  can0  581   [8]  43 6C 60 02 00 00 00 00
 (1789436118.801083)  can0  601   [8]  40 6C 60 03 00 00 00 00
 (1789436118.801389)  can0  581   [8]  43 6C 60 03 00 00 00 00
 (1789436118.809995)  can0  181   [8]  00 94 00 14 00 00 00 00
 (1789436118.859946)  can0  181   [8]  00 94 00 14 00 00 00 00
 (1789436118.909896)  can0  181   [8]  00 94 00 14 00 00 00 00
 (1789436118.959844)  can0  181   [8]  00 94 00 14 00 00 00 00
 (1789436119.000440)  can0  701   [1]  05
 (1789436119.009797)  can0  181   [8]  00 94 00 14 00 00 00 00
 (1789436119.059748)  can0  181   [8]  00 94 00 14 00 00 00 00
 (1789436119.109697)  can0  181   [8]  00 94 00 14 00 00 00 00
 (1789436119.159648)  can0  181   [8]  00 94 00 14 00 00 00 00
 (1789436119.209599)  can0  181   [8]  00 94 00 14 00 00 00 00
 (1789436119.250007)  can0  701   [1]  05
 (1789436119.259549)  can0  181   [8]  00 94 00 14 00 00 00 00
 (1789436119.309499)  can0  181   [8]  00 94 00 14 00 00 00 00
 (1789436119.359451)  can0  181   [8]  00 94 00 14 00 00 00 00
 (1789436119.409399)  can0  181   [8]  00 94 00 14 00 00 00 00
 (1789436119.459350)  can0  181   [8]  00 94 00 14 00 00 00 00
 (1789436119.499511)  can0  701   [1]  05
 (1789436119.509301)  can0  181   [8]  00 94 00 14 00 00 00 00
 (1789436119.559251)  can0  181   [8]  00 94 00 14 00 00 00 00
 (1789436119.609202)  can0  181   [8]  00 94 00 14 00 00 00 00
 (1789436119.659151)  can0  181   [8]  00 94 00 14 00 00 00 00
 (1789436119.709105)  can0  181   [8]  00 94 00 14 00 00 00 00
 (1789436119.749073)  can0  701   [1]  05
 (1789436119.759053)  can0  181   [8]  00 94 00 14 00 00 00 00
 (1789436119.801107)  can0  601   [8]  40 41 60 00 00 00 00 00
 (1789436119.801448)  can0  581   [8]  43 41 60 00 00 94 00 14
 (1789436119.803086)  can0  601   [8]  40 6C 60 01 00 00 00 00
 (1789436119.803393)  can0  581   [8]  43 6C 60 01 00 00 00 00
 (1789436119.805082)  can0  601   [8]  40 6C 60 02 00 00 00 00
 (1789436119.805389)  can0  581   [8]  43 6C 60 02 00 00 00 00
 (1789436119.807084)  can0  601   [8]  40 6C 60 03 00 00 00 00
 (1789436119.807437)  can0  581   [8]  43 6C 60 03 00 00 00 00
 (1789436119.809005)  can0  181   [8]  00 94 00 14 00 00 00 00
 (1789436119.858955)  can0  181   [8]  00 94 00 14 00 00 00 00
 (1789436119.908907)  can0  181   [8]  00 94 00 14 00 00 00 00
 (1789436119.958856)  can0  181   [8]  00 94 00 14 00 00 00 00
 (1789436119.998576)  can0  701   [1]  05
 (1789436120.008806)  can0  181   [8]  00 94 00 14 00 00 00 00
 (1789436120.058756)  can0  181   [8]  00 94 00 14 00 00 00 00
 (1789436120.108705)  can0  181   [8]  00 94 00 14 00 00 00 00
 (1789436120.158658)  can0  181   [8]  00 94 00 14 00 00 00 00
 (1789436120.208609)  can0  181   [8]  00 94 00 14 00 00 00 00
 (1789436120.248141)  can0  701   [1]  05
 (1789436120.258558)  can0  181   [8]  00 94 00 14 00 00 00 00
 (1789436120.308509)  can0  181   [8]  00 94 00 14 00 00 00 00
 (1789436120.358459)  can0  181   [8]  00 94 00 14 00 00 00 00
 (1789436120.408409)  can0  181   [8]  00 94 00 14 00 00 00 00
 (1789436120.458359)  can0  181   [8]  00 94 00 14 00 00 00 00
 (1789436120.497644)  can0  701   [1]  05
 (1789436120.508311)  can0  181   [8]  00 94 00 14 00 00 00 00
 (1789436120.558262)  can0  181   [8]  00 94 00 14 00 00 00 00
 (1789436120.608213)  can0  181   [8]  00 94 00 14 00 00 00 00
 (1789436120.658162)  can0  181   [8]  00 94 00 14 00 00 00 00
 (1789436120.708112)  can0  181   [8]  00 94 00 14 00 00 00 00
 (1789436120.747210)  can0  701   [1]  05
 (1789436120.758063)  can0  181   [8]  00 94 00 14 00 00 00 00
 (1789436120.807102)  can0  601   [8]  40 41 60 00 00 00 00 00
 (1789436120.807444)  can0  581   [8]  43 41 60 00 00 94 00 14
 (1789436120.808014)  can0  181   [8]  00 94 00 14 00 00 00 00
 (1789436120.808332)  can0  601   [8]  40 6C 60 01 00 00 00 00
 (1789436120.808638)  can0  581   [8]  43 6C 60 01 00 00 00 00
 (1789436120.810082)  can0  601   [8]  40 6C 60 02 00 00 00 00
 (1789436120.810388)  can0  581   [8]  43 6C 60 02 00 00 00 00
 (1789436120.812085)  can0  601   [8]  40 6C 60 03 00 00 00 00
 (1789436120.812433)  can0  581   [8]  43 6C 60 03 00 00 00 00
 (1789436120.857965)  can0  181   [8]  00 94 00 14 00 00 00 00
 (1789436120.907917)  can0  181   [8]  00 94 00 14 00 00 00 00
 (1789436120.957865)  can0  181   [8]  00 94 00 14 00 00 00 00
 (1789436120.996713)  can0  701   [1]  05
 (1789436121.007815)  can0  181   [8]  00 94 00 14 00 00 00 00
 (1789436121.057765)  can0  181   [8]  00 94 00 14 00 00 00 00
 (1789436121.107718)  can0  181   [8]  00 94 00 14 00 00 00 00
 (1789436121.157668)  can0  181   [8]  00 94 00 14 00 00 00 00
 (1789436121.207618)  can0  181   [8]  00 94 00 14 00 00 00 00
 (1789436121.246278)  can0  701   [1]  05
 (1789436121.257568)  can0  181   [8]  00 94 00 14 00 00 00 00
 (1789436121.307518)  can0  181   [8]  00 94 00 14 00 00 00 00
 (1789436121.357468)  can0  181   [8]  00 94 00 14 00 00 00 00
 (1789436121.407419)  can0  181   [8]  00 94 00 14 00 00 00 00
 (1789436121.457371)  can0  181   [8]  00 94 00 14 00 00 00 00
 (1789436121.495780)  can0  701   [1]  05
 (1789436121.507320)  can0  181   [8]  00 94 00 14 00 00 00 00
 (1789436121.557272)  can0  181   [8]  00 94 00 14 00 00 00 00
 (1789436121.607221)  can0  181   [8]  00 94 00 14 00 00 00 00
 (1789436121.657172)  can0  181   [8]  00 94 00 14 00 00 00 00
 (1789436121.707120)  can0  181   [8]  00 94 00 14 00 00 00 00
 (1789436121.745347)  can0  701   [1]  05
 (1789436121.757072)  can0  181   [8]  00 94 00 14 00 00 00 00
 (1789436121.807024)  can0  181   [8]  00 94 00 14 00 00 00 00
 (1789436121.814097)  can0  601   [8]  40 41 60 00 00 00 00 00
 (1789436121.814436)  can0  581   [8]  43 41 60 00 00 94 00 14
 (1789436121.816086)  can0  601   [8]  40 6C 60 01 00 00 00 00
 (1789436121.816431)  can0  581   [8]  43 6C 60 01 00 00 00 00
 (1789436121.818081)  can0  601   [8]  40 6C 60 02 00 00 00 00
 (1789436121.818428)  can0  581   [8]  43 6C 60 02 00 00 00 00
 (1789436121.820086)  can0  601   [8]  40 6C 60 03 00 00 00 00
 (1789436121.820423)  can0  581   [8]  43 6C 60 03 00 00 00 00
 (1789436121.856976)  can0  181   [8]  00 94 00 14 00 00 00 00
 (1789436121.906989)  can0  181   [8]  00 94 00 14 00 00 00 00
 (1789436121.956937)  can0  181   [8]  00 94 00 14 00 00 00 00
 (1789436121.994849)  can0  701   [1]  05
 (1789436122.006888)  can0  181   [8]  00 94 00 14 00 00 00 00
 (1789436122.056837)  can0  181   [8]  00 94 00 14 00 00 00 00
 (1789436122.106789)  can0  181   [8]  00 94 00 14 00 00 00 00
 (1789436122.156737)  can0  181   [8]  00 94 00 14 00 00 00 00
 (1789436122.206688)  can0  181   [8]  00 94 00 14 00 00 00 00
 (1789436122.244415)  can0  701   [1]  05
 (1789436122.256641)  can0  181   [8]  00 94 00 14 00 00 00 00
 (1789436122.306590)  can0  181   [8]  00 94 00 14 00 00 00 00
 (1789436122.356541)  can0  181   [8]  00 94 00 14 00 00 00 00
 (1789436122.406491)  can0  181   [8]  00 94 00 14 00 00 00 00
 (1789436122.456441)  can0  181   [8]  00 94 00 14 00 00 00 00
 (1789436122.493919)  can0  701   [1]  05
 (1789436122.506389)  can0  181   [8]  00 94 00 14 00 00 00 00
 (1789436122.556342)  can0  181   [8]  00 94 00 14 00 00 00 00
 (1789436122.606293)  can0  181   [8]  00 94 00 14 00 00 00 00
 (1789436122.656243)  can0  181   [8]  00 94 00 14 00 00 00 00
 (1789436122.706195)  can0  181   [8]  00 94 00 14 00 00 00 00
 (1789436122.743480)  can0  701   [1]  05
 (1789436122.756205)  can0  181   [8]  00 94 00 14 00 00 00 00
 (1789436122.806157)  can0  181   [8]  00 94 00 14 00 00 00 00
 (1789436122.820099)  can0  601   [8]  40 41 60 00 00 00 00 00
 (1789436122.820428)  can0  581   [8]  43 41 60 00 00 94 00 14
 (1789436122.822086)  can0  601   [8]  40 6C 60 01 00 00 00 00
 (1789436122.822425)  can0  581   [8]  43 6C 60 01 00 00 00 00
 (1789436122.824080)  can0  601   [8]  40 6C 60 02 00 00 00 00
 (1789436122.824421)  can0  581   [8]  43 6C 60 02 00 00 00 00
 (1789436122.826083)  can0  601   [8]  40 6C 60 03 00 00 00 00
 (1789436122.826417)  can0  581   [8]  43 6C 60 03 00 00 00 00
 (1789436122.856109)  can0  181   [8]  00 94 00 14 00 00 00 00
 (1789436122.906057)  can0  181   [8]  00 94 00 14 00 00 00 00
 (1789436122.956007)  can0  181   [8]  00 94 00 14 00 00 00 00
 (1789436122.993046)  can0  701   [1]  05
 (1789436123.005958)  can0  181   [8]  00 94 00 14 00 00 00 00
 (1789436123.055910)  can0  181   [8]  00 94 00 14 00 00 00 00
 (1789436123.105860)  can0  181   [8]  00 94 00 14 00 00 00 00
 (1789436123.155811)  can0  181   [8]  00 94 00 14 00 00 00 00
 (1789436123.205760)  can0  181   [8]  00 94 00 14 00 00 00 00
 (1789436123.242550)  can0  701   [1]  05
 (1789436123.255711)  can0  181   [8]  00 94 00 14 00 00 00 00
 (1789436123.305660)  can0  181   [8]  00 94 00 14 00 00 00 00
 (1789436123.355613)  can0  181   [8]  00 94 00 14 00 00 00 00
 (1789436123.405563)  can0  181   [8]  00 94 00 14 00 00 00 00
 (1789436123.455513)  can0  181   [8]  00 94 00 14 00 00 00 00
 (1789436123.492116)  can0  701   [1]  05
 (1789436123.505463)  can0  181   [8]  00 94 00 14 00 00 00 00
 (1789436123.555413)  can0  181   [8]  00 94 00 14 00 00 00 00
 (1789436123.605364)  can0  181   [8]  00 94 00 14 00 00 00 00
 (1789436123.655315)  can0  181   [8]  00 94 00 14 00 00 00 00
 (1789436123.705265)  can0  181   [8]  00 94 00 14 00 00 00 00
 (1789436123.741619)  can0  701   [1]  05
 (1789436123.755216)  can0  181   [8]  00 94 00 14 00 00 00 00
 (1789436123.805166)  can0  181   [8]  00 94 00 14 00 00 00 00
 (1789436123.827104)  can0  601   [8]  40 41 60 00 00 00 00 00
 (1789436123.827420)  can0  581   [8]  43 41 60 00 00 94 00 14
 (1789436123.829088)  can0  601   [8]  40 6C 60 01 00 00 00 00
 (1789436123.829416)  can0  581   [8]  43 6C 60 01 00 00 00 00
 (1789436123.831082)  can0  601   [8]  40 6C 60 02 00 00 00 00
 (1789436123.831353)  can0  581   [8]  43 6C 60 02 00 00 00 00
 (1789436123.833082)  can0  601   [8]  40 6C 60 03 00 00 00 00
 (1789436123.833408)  can0  581   [8]  43 6C 60 03 00 00 00 00
 (1789436123.855117)  can0  181   [8]  00 94 00 14 00 00 00 00
 (1789436123.905068)  can0  181   [8]  00 94 00 14 00 00 00 00
 (1789436123.955018)  can0  181   [8]  00 94 00 14 00 00 00 00
 (1789436123.991185)  can0  701   [1]  05
 (1789436124.004909)  can0  181   [8]  00 94 00 14 00 00 00 00
 (1789436124.054921)  can0  181   [8]  00 94 00 14 00 00 00 00
 (1789436124.104866)  can0  181   [8]  00 94 00 14 00 00 00 00
 (1789436124.154819)  can0  181   [8]  00 94 00 14 00 00 00 00
 (1789436124.204770)  can0  181   [8]  00 94 00 14 00 00 00 00
 (1789436124.240686)  can0  701   [1]  05
 (1789436124.254719)  can0  181   [8]  00 94 00 14 00 00 00 00
 (1789436124.304670)  can0  181   [8]  00 94 00 14 00 00 00 00
 (1789436124.354620)  can0  181   [8]  00 94 00 14 00 00 00 00
 (1789436124.404571)  can0  181   [8]  00 94 00 14 00 00 00 00
 (1789436124.454521)  can0  181   [8]  00 94 00 14 00 00 00 00
 (1789436124.490250)  can0  701   [1]  05
 (1789436124.504473)  can0  181   [8]  00 94 00 14 00 00 00 00
 (1789436124.554422)  can0  181   [8]  00 94 00 14 00 00 00 00
 (1789436124.604372)  can0  181   [8]  00 94 00 14 00 00 00 00
 (1789436124.654324)  can0  181   [8]  00 94 00 14 00 00 00 00
 (1789436124.704273)  can0  181   [8]  00 94 00 14 00 00 00 00
 (1789436124.739753)  can0  701   [1]  05
 (1789436124.754223)  can0  181   [8]  00 94 00 14 00 00 00 00
 (1789436124.804175)  can0  181   [8]  00 94 00 14 00 00 00 00
 (1789436124.833101)  can0  601   [8]  40 41 60 00 00 00 00 00
 (1789436124.833412)  can0  581   [8]  43 41 60 00 00 94 00 14
 (1789436124.835085)  can0  601   [8]  40 6C 60 01 00 00 00 00
 (1789436124.835410)  can0  581   [8]  43 6C 60 01 00 00 00 00
 (1789436124.837081)  can0  601   [8]  40 6C 60 02 00 00 00 00
 (1789436124.837404)  can0  581   [8]  43 6C 60 02 00 00 00 00
 (1789436124.839083)  can0  601   [8]  40 6C 60 03 00 00 00 00
 (1789436124.839401)  can0  581   [8]  43 6C 60 03 00 00 00 00
 (1789436124.854125)  can0  181   [8]  00 94 00 14 00 00 00 00
 (1789436124.904079)  can0  181   [8]  00 94 00 14 00 00 00 00
 (1789436124.954027)  can0  181   [8]  00 94 00 14 00 00 00 00
 (1789436124.989320)  can0  701   [1]  05
 (1789436125.003977)  can0  181   [8]  00 94 00 14 00 00 00 00
 (1789436125.053926)  can0  181   [8]  00 94 00 14 00 00 00 00
 (1789436125.103877)  can0  181   [8]  00 94 00 14 00 00 00 00
 (1789436125.153828)  can0  181   [8]  00 94 00 14 00 00 00 00
 (1789436125.203778)  can0  181   [8]  00 94 00 14 00 00 00 00
 (1789436125.238822)  can0  701   [1]  05
 (1789436125.253727)  can0  181   [8]  00 94 00 14 00 00 00 00
 (1789436125.303680)  can0  181   [8]  00 94 00 14 00 00 00 00
 (1789436125.353630)  can0  181   [8]  00 94 00 14 00 00 00 00
 (1789436125.403580)  can0  181   [8]  00 94 00 14 00 00 00 00
 (1789436125.453530)  can0  181   [8]  00 94 00 14 00 00 00 00
 (1789436125.488386)  can0  701   [1]  05
 (1789436125.503480)  can0  181   [8]  00 94 00 14 00 00 00 00
 (1789436125.553431)  can0  181   [8]  00 94 00 14 00 00 00 00
 (1789436125.603379)  can0  181   [8]  00 94 00 14 00 00 00 00
 (1789436125.653334)  can0  181   [8]  00 94 00 14 00 00 00 00
 (1789436125.703283)  can0  181   [8]  00 94 00 14 00 00 00 00
 (1789436125.737889)  can0  701   [1]  05
 (1789436125.753233)  can0  181   [8]  00 94 00 14 00 00 00 00
 (1789436125.803183)  can0  181   [8]  00 94 00 14 00 00 00 00
 (1789436125.839100)  can0  601   [8]  40 41 60 00 00 00 00 00
 (1789436125.839405)  can0  581   [8]  43 41 60 00 00 94 00 14
 (1789436125.841085)  can0  601   [8]  40 6C 60 01 00 00 00 00
 (1789436125.841403)  can0  581   [8]  43 6C 60 01 00 00 00 00
 (1789436125.843085)  can0  601   [8]  40 6C 60 02 00 00 00 00
 (1789436125.843398)  can0  581   [8]  43 6C 60 02 00 00 00 00
 (1789436125.845083)  can0  601   [8]  40 6C 60 03 00 00 00 00
 (1789436125.845393)  can0  581   [8]  43 6C 60 03 00 00 00 00
 (1789436125.853133)  can0  181   [8]  00 94 00 14 00 00 00 00
