CAN_BEFORE {"ifindex": 2, "ifname": "can0", "flags": ["NOARP", "UP", "LOWER_UP", "ECHO"], "mtu": 16, "qdisc": "pfifo_fast", "operstate": "UP", "linkmode": "DEFAULT", "group": "default", "txqlen": 10, "link_type": "can", "promiscuity": 0, "min_mtu": 0, "max_mtu": 0, "linkinfo": {"info_kind": "can", "info_data": {"state": "ERROR-ACTIVE", "berr_counter": {"tx": 0, "rx": 0}, "restart_ms": 100, "bittiming": {"bitrate": 500000, "sample_point": 0.866, "tq": 26, "prop_seg": 32, "phase_seg1": 32, "phase_seg2": 10, "sjw": 1}, "bittiming_const": {"name": "rockchip_canfd", "tseg1": {"min": 1, "max": 128}, "tseg2": {"min": 1, "max": 128}, "sjw": {"min": 1, "max": 128}, "brp": {"min": 1, "max": 256}, "brp_inc": 2}, "clock": 150000000}, "info_xstats": {"restarts": 0, "bus_error": 0, "arbitration_lost": 0, "error_warning": 0, "error_passive": 0, "bus_off": 0}}, "num_tx_queues": 1, "num_rx_queues": 1, "gso_max_size": 65536, "gso_max_segs": 65535, "parentbus": "platform", "parentdev": "fea60000.can", "stats64": {"rx": {"bytes": 17497, "packets": 2463, "errors": 0, "dropped": 0, "over_errors": 0, "multicast": 0}, "tx": {"bytes": 3982, "packets": 506, "errors": 0, "dropped": 0, "carrier_errors": 0, "collisions": 0}}}
CAPTURE_READY
 (1789039969.417467)  can0  601   [8]  40 41 60 00 00 00 00 00
 (1789039969.417740)  can0  581   [8]  43 41 60 00 21 14 21 14
 (1789039969.568076)  can0  601   [8]  40 FF 60 01 00 00 00 00
 (1789039969.568372)  can0  581   [8]  43 FF 60 01 00 00 00 00
 (1789039969.717738)  can0  601   [8]  40 FF 60 02 00 00 00 00
 (1789039969.718088)  can0  581   [8]  43 FF 60 02 00 00 00 00
 (1789039969.867975)  can0  601   [8]  40 3F 60 00 00 00 00 00
 (1789039969.868246)  can0  581   [8]  43 3F 60 00 00 00 00 00
 (1789039970.017778)  can0  601   [8]  40 60 60 00 00 00 00 00
 (1789039970.018025)  can0  581   [8]  4F 60 60 00 03 00 00 00
 (1789039970.168711)  can0  601   [8]  40 61 60 00 00 00 00 00
 (1789039970.169041)  can0  581   [8]  4F 61 60 00 03 00 00 00
 (1789039970.317641)  can0  601   [8]  40 6C 60 01 00 00 00 00
 (1789039970.317891)  can0  581   [8]  43 6C 60 01 00 00 00 00
 (1789039970.467949)  can0  601   [8]  40 6C 60 02 00 00 00 00
 (1789039970.468303)  can0  581   [8]  43 6C 60 02 00 00 00 00
 (1789039970.617957)  can0  601   [8]  40 6C 60 03 00 00 00 00
 (1789039970.618202)  can0  581   [8]  43 6C 60 03 00 00 00 00
 (1789039970.768820)  can0  601   [8]  40 17 10 00 00 00 00 00
 (1789039970.769173)  can0  581   [8]  4B 17 10 00 00 00 00 00
 (1789039970.917968)  can0  601   [8]  40 00 18 01 00 00 00 00
 (1789039970.918259)  can0  581   [8]  43 00 18 01 81 01 00 00
 (1789039971.068317)  can0  601   [8]  40 00 18 02 00 00 00 00
 (1789039971.068665)  can0  581   [8]  4F 00 18 02 FF 00 00 00
 (1789039971.218079)  can0  601   [8]  40 00 18 05 00 00 00 00
 (1789039971.218323)  can0  581   [8]  4B 00 18 05 64 00 00 00
 (1789039971.367353)  can0  601   [8]  40 00 1A 00 00 00 00 00
 (1789039971.367604)  can0  581   [8]  4F 00 1A 00 02 00 00 00
 (1789039971.518165)  can0  601   [8]  40 00 1A 01 00 00 00 00
 (1789039971.518436)  can0  581   [8]  43 00 1A 01 20 00 41 60
 (1789039971.668522)  can0  601   [8]  40 00 1A 02 00 00 00 00
 (1789039971.668774)  can0  581   [8]  43 00 1A 02 20 03 6C 60
 (1789039971.818098)  can0  000   [2]  01 01
 (1789039971.818448)  can0  181   [8]  21 14 21 14 00 00 00 00
 (1789039971.818536)  can0  281   [0] 
 (1789039971.818640)  can0  381   [0] 
 (1789039971.818677)  can0  481   [0] 
 (1789039971.868436)  can0  181   [8]  21 14 21 14 00 00 00 00
 (1789039971.918384)  can0  181   [8]  21 14 21 14 00 00 00 00
 (1789039971.968331)  can0  181   [8]  21 14 21 14 00 00 00 00
 (1789039972.018277)  can0  181   [8]  21 14 21 14 00 00 00 00
 (1789039972.068226)  can0  181   [8]  21 14 21 14 00 00 00 00
 (1789039972.118174)  can0  181   [8]  21 14 21 14 00 00 00 00
 (1789039972.168121)  can0  181   [8]  21 14 21 14 00 00 00 00
 (1789039972.218068)  can0  181   [8]  21 14 21 14 00 00 00 00
 (1789039972.268015)  can0  181   [8]  21 14 21 14 00 00 00 00
 (1789039972.317963)  can0  181   [8]  21 14 21 14 00 00 00 00
 (1789039972.367910)  can0  181   [8]  21 14 21 14 00 00 00 00
 (1789039972.417858)  can0  181   [8]  21 14 21 14 00 00 00 00
 (1789039972.467805)  can0  181   [8]  21 14 21 14 00 00 00 00
 (1789039972.517752)  can0  181   [8]  21 14 21 14 00 00 00 00
 (1789039972.567701)  can0  181   [8]  21 14 21 14 00 00 00 00
 (1789039972.617646)  can0  181   [8]  21 14 21 14 00 00 00 00
 (1789039972.667594)  can0  181   [8]  21 14 21 14 00 00 00 00
 (1789039972.717542)  can0  181   [8]  21 14 21 14 00 00 00 00
 (1789039972.767490)  can0  181   [8]  21 14 21 14 00 00 00 00
 (1789039972.817437)  can0  181   [8]  21 14 21 14 00 00 00 00
 (1789039972.867384)  can0  181   [8]  21 14 21 14 00 00 00 00
 (1789039972.917330)  can0  181   [8]  21 14 21 14 00 00 00 00
 (1789039972.967278)  can0  181   [8]  21 14 21 14 00 00 00 00
 (1789039973.017226)  can0  181   [8]  21 14 21 14 00 00 00 00
 (1789039973.067174)  can0  181   [8]  21 14 21 14 00 00 00 00
 (1789039973.117121)  can0  181   [8]  21 14 21 14 00 00 00 00
 (1789039973.167068)  can0  181   [8]  21 14 21 14 00 00 00 00
 (1789039973.217016)  can0  181   [8]  21 14 21 14 00 00 00 00
 (1789039973.266963)  can0  181   [8]  21 14 21 14 00 00 00 00
 (1789039973.316909)  can0  181   [8]  21 14 21 14 00 00 00 00
 (1789039973.366856)  can0  181   [8]  21 14 21 14 00 00 00 00
 (1789039973.416806)  can0  181   [8]  21 14 21 14 00 00 00 00
 (1789039973.466752)  can0  181   [8]  21 14 21 14 00 00 00 00
 (1789039973.516701)  can0  181   [8]  21 14 21 14 00 00 00 00
 (1789039973.566647)  can0  181   [8]  21 14 21 14 00 00 00 00
 (1789039973.616594)  can0  181   [8]  21 14 21 14 00 00 00 00
 (1789039973.666540)  can0  181   [8]  21 14 21 14 00 00 00 00
 (1789039973.716490)  can0  181   [8]  21 14 21 14 00 00 00 00
 (1789039973.766437)  can0  181   [8]  21 14 21 14 00 00 00 00
 (1789039973.816385)  can0  181   [8]  21 14 21 14 00 00 00 00
 (1789039973.866331)  can0  181   [8]  21 14 21 14 00 00 00 00
 (1789039973.916279)  can0  181   [8]  21 14 21 14 00 00 00 00
 (1789039973.966226)  can0  181   [8]  21 14 21 14 00 00 00 00
 (1789039974.016174)  can0  181   [8]  21 14 21 14 00 00 00 00
 (1789039974.066121)  can0  181   [8]  21 14 21 14 00 00 00 00
 (1789039974.116073)  can0  181   [8]  21 14 21 14 00 00 00 00
 (1789039974.166016)  can0  181   [8]  21 14 21 14 00 00 00 00
 (1789039974.215963)  can0  181   [8]  21 14 21 14 00 00 00 00
 (1789039974.265910)  can0  181   [8]  21 14 21 14 00 00 00 00
 (1789039974.315857)  can0  181   [8]  21 14 21 14 00 00 00 00
 (1789039974.365805)  can0  181   [8]  21 14 21 14 00 00 00 00
 (1789039974.415706)  can0  181   [8]  21 14 21 14 00 00 00 00
 (1789039974.465700)  can0  181   [8]  21 14 21 14 00 00 00 00
 (1789039974.515648)  can0  181   [8]  21 14 21 14 00 00 00 00
 (1789039974.565594)  can0  181   [8]  21 14 21 14 00 00 00 00
 (1789039974.615541)  can0  181   [8]  21 14 21 14 00 00 00 00
 (1789039974.665489)  can0  181   [8]  21 14 21 14 00 00 00 00
 (1789039974.715437)  can0  181   [8]  21 14 21 14 00 00 00 00
 (1789039974.765384)  can0  181   [8]  21 14 21 14 00 00 00 00
 (1789039974.815332)  can0  181   [8]  21 14 21 14 00 00 00 00
 (1789039974.865278)  can0  181   [8]  21 14 21 14 00 00 00 00
 (1789039974.915226)  can0  181   [8]  21 14 21 14 00 00 00 00
 (1789039974.965173)  can0  181   [8]  21 14 21 14 00 00 00 00
 (1789039975.015122)  can0  181   [8]  21 14 21 14 00 00 00 00
 (1789039975.065069)  can0  181   [8]  21 14 21 14 00 00 00 00
 (1789039975.115015)  can0  181   [8]  21 14 21 14 00 00 00 00
 (1789039975.164963)  can0  181   [8]  21 14 21 14 00 00 00 00
 (1789039975.214910)  can0  181   [8]  21 14 21 14 00 00 00 00
 (1789039975.264857)  can0  181   [8]  21 14 21 14 00 00 00 00
 (1789039975.314804)  can0  181   [8]  21 14 21 14 00 00 00 00
 (1789039975.364753)  can0  181   [8]  21 14 21 14 00 00 00 00
 (1789039975.414700)  can0  181   [8]  21 14 21 14 00 00 00 00
 (1789039975.464648)  can0  181   [8]  21 14 21 14 00 00 00 00
 (1789039975.514594)  can0  181   [8]  21 14 21 14 00 00 00 00
 (1789039975.564541)  can0  181   [8]  21 14 21 14 00 00 00 00
 (1789039975.614488)  can0  181   [8]  21 14 21 14 00 00 00 00
 (1789039975.664438)  can0  181   [8]  21 14 21 14 00 00 00 00
 (1789039975.714385)  can0  181   [8]  21 14 21 14 00 00 00 00
 (1789039975.764333)  can0  181   [8]  21 14 21 14 00 00 00 00
 (1789039975.814278)  can0  181   [8]  21 14 21 14 00 00 00 00
 (1789039975.864226)  can0  181   [8]  21 14 21 14 00 00 00 00
 (1789039975.914173)  can0  181   [8]  21 14 21 14 00 00 00 00
 (1789039975.964120)  can0  181   [8]  21 14 21 14 00 00 00 00
 (1789039976.014069)  can0  181   [8]  21 14 21 14 00 00 00 00
 (1789039976.064016)  can0  181   [8]  21 14 21 14 00 00 00 00
 (1789039976.113963)  can0  181   [8]  21 14 21 14 00 00 00 00
 (1789039976.163910)  can0  181   [8]  21 14 21 14 00 00 00 00
 (1789039976.213858)  can0  181   [8]  21 14 21 14 00 00 00 00
 (1789039976.263804)  can0  181   [8]  21 14 21 14 00 00 00 00
 (1789039976.313753)  can0  181   [8]  21 14 21 14 00 00 00 00
 (1789039976.363701)  can0  181   [8]  21 14 21 14 00 00 00 00
 (1789039976.413649)  can0  181   [8]  21 14 21 14 00 00 00 00
 (1789039976.463594)  can0  181   [8]  21 14 21 14 00 00 00 00
 (1789039976.513542)  can0  181   [8]  21 14 21 14 00 00 00 00
 (1789039976.563489)  can0  181   [8]  21 14 21 14 00 00 00 00
 (1789039976.613436)  can0  181   [8]  21 14 21 14 00 00 00 00
 (1789039976.663385)  can0  181   [8]  21 14 21 14 00 00 00 00
 (1789039976.713333)  can0  181   [8]  21 14 21 14 00 00 00 00
 (1789039976.763279)  can0  181   [8]  21 14 21 14 00 00 00 00
 (1789039976.813227)  can0  181   [8]  21 14 21 14 00 00 00 00
 (1789039976.863173)  can0  181   [8]  21 14 21 14 00 00 00 00
 (1789039976.864081)  can0  601   [8]  40 41 60 00 00 00 00 00
 (1789039976.864426)  can0  581   [8]  43 41 60 00 21 14 21 14
 (1789039976.867195)  can0  601   [8]  40 6C 60 01 00 00 00 00
 (1789039976.867543)  can0  581   [8]  43 6C 60 01 00 00 00 00
 (1789039976.913122)  can0  181   [8]  21 14 21 14 00 00 00 00
 (1789039976.913868)  can0  601   [8]  40 6C 60 02 00 00 00 00
 (1789039976.914186)  can0  581   [8]  43 6C 60 02 00 00 00 00
 (1789039976.963069)  can0  181   [8]  21 14 21 14 00 00 00 00
 (1789039976.963826)  can0  601   [8]  40 6C 60 03 00 00 00 00
 (1789039976.964133)  can0  581   [8]  43 6C 60 03 00 00 00 00
 (1789039977.013016)  can0  181   [8]  21 14 21 14 00 00 00 00
 (1789039977.062963)  can0  181   [8]  21 14 21 14 00 00 00 00
 (1789039977.112910)  can0  181   [8]  21 14 21 14 00 00 00 00
 (1789039977.162857)  can0  181   [8]  21 14 21 14 00 00 00 00
 (1789039977.212805)  can0  181   [8]  21 14 21 14 00 00 00 00
 (1789039977.262754)  can0  181   [8]  21 14 21 14 00 00 00 00
 (1789039977.312701)  can0  181   [8]  21 14 21 14 00 00 00 00
 (1789039977.362648)  can0  181   [8]  21 14 21 14 00 00 00 00
 (1789039977.363294)  can0  601   [8]  40 41 60 00 00 00 00 00
 (1789039977.363580)  can0  581   [8]  43 41 60 00 21 14 21 14
 (1789039977.367204)  can0  601   [8]  40 6C 60 01 00 00 00 00
 (1789039977.367456)  can0  581   [8]  43 6C 60 01 00 00 00 00
 (1789039977.412594)  can0  181   [8]  21 14 21 14 00 00 00 00
 (1789039977.413144)  can0  601   [8]  40 6C 60 02 00 00 00 00
 (1789039977.413416)  can0  581   [8]  43 6C 60 02 00 00 00 00
 (1789039977.462542)  can0  181   [8]  21 14 21 14 00 00 00 00
 (1789039977.463146)  can0  601   [8]  40 6C 60 03 00 00 00 00
 (1789039977.463423)  can0  581   [8]  43 6C 60 03 00 00 00 00
 (1789039977.512488)  can0  181   [8]  21 14 21 14 00 00 00 00
 (1789039977.562436)  can0  181   [8]  21 14 21 14 00 00 00 00
 (1789039977.612385)  can0  181   [8]  21 14 21 14 00 00 00 00
 (1789039977.662332)  can0  181   [8]  21 14 21 14 00 00 00 00
 (1789039977.712280)  can0  181   [8]  21 14 21 14 00 00 00 00
 (1789039977.762226)  can0  181   [8]  21 14 21 14 00 00 00 00
 (1789039977.812173)  can0  181   [8]  21 14 21 14 00 00 00 00
 (1789039977.862122)  can0  181   [8]  21 14 21 14 00 00 00 00
 (1789039977.862803)  can0  601   [8]  40 41 60 00 00 00 00 00
 (1789039977.863055)  can0  581   [8]  43 41 60 00 21 14 21 14
 (1789039977.867243)  can0  601   [8]  40 6C 60 01 00 00 00 00
 (1789039977.867490)  can0  581   [8]  43 6C 60 01 00 00 00 00
 (1789039977.912068)  can0  181   [8]  21 14 21 14 00 00 00 00
 (1789039977.912670)  can0  601   [8]  40 6C 60 02 00 00 00 00
 (1789039977.913020)  can0  581   [8]  43 6C 60 02 00 00 00 00
 (1789039977.962017)  can0  181   [8]  21 14 21 14 00 00 00 00
 (1789039977.962641)  can0  601   [8]  40 6C 60 03 00 00 00 00
 (1789039977.962899)  can0  581   [8]  43 6C 60 03 00 00 00 00
 (1789039978.011963)  can0  181   [8]  21 14 21 14 00 00 00 00
 (1789039978.061910)  can0  181   [8]  21 14 21 14 00 00 00 00
 (1789039978.111859)  can0  181   [8]  21 14 21 14 00 00 00 00
 (1789039978.161806)  can0  181   [8]  21 14 21 14 00 00 00 00
 (1789039978.211754)  can0  181   [8]  21 14 21 14 00 00 00 00
 (1789039978.261701)  can0  181   [8]  21 14 21 14 00 00 00 00
 (1789039978.311648)  can0  181   [8]  21 14 21 14 00 00 00 00
 (1789039978.361596)  can0  181   [8]  21 14 21 14 00 00 00 00
 (1789039978.362120)  can0  601   [8]  40 41 60 00 00 00 00 00
 (1789039978.362471)  can0  581   [8]  43 41 60 00 21 14 21 14
 (1789039978.367181)  can0  601   [8]  40 6C 60 01 00 00 00 00
 (1789039978.367462)  can0  581   [8]  43 6C 60 01 00 00 00 00
 (1789039978.411543)  can0  181   [8]  21 14 21 14 00 00 00 00
 (1789039978.412143)  can0  601   [8]  40 6C 60 02 00 00 00 00
 (1789039978.412478)  can0  581   [8]  43 6C 60 02 00 00 00 00
 (1789039978.461490)  can0  181   [8]  21 14 21 14 00 00 00 00
 (1789039978.462090)  can0  601   [8]  40 6C 60 03 00 00 00 00
 (1789039978.462489)  can0  581   [8]  43 6C 60 03 00 00 00 00
 (1789039978.511438)  can0  181   [8]  21 14 21 14 00 00 00 00
 (1789039978.561386)  can0  181   [8]  21 14 21 14 00 00 00 00
 (1789039978.611332)  can0  181   [8]  21 14 21 14 00 00 00 00
 (1789039978.661279)  can0  181   [8]  21 14 21 14 00 00 00 00
 (1789039978.711226)  can0  181   [8]  21 14 21 14 00 00 00 00
 (1789039978.761173)  can0  181   [8]  21 14 21 14 00 00 00 00
 (1789039978.811122)  can0  181   [8]  21 14 21 14 00 00 00 00
 (1789039978.861071)  can0  181   [8]  21 14 21 14 00 00 00 00
 (1789039978.861597)  can0  601   [8]  40 41 60 00 00 00 00 00
 (1789039978.861937)  can0  581   [8]  43 41 60 00 21 14 21 14
 (1789039978.867141)  can0  601   [8]  40 6C 60 01 00 00 00 00
 (1789039978.867433)  can0  581   [8]  43 6C 60 01 00 00 00 00
 (1789039978.911016)  can0  181   [8]  21 14 21 14 00 00 00 00
 (1789039978.911835)  can0  601   [8]  40 6C 60 02 00 00 00 00
 (1789039978.912083)  can0  581   [8]  43 6C 60 02 00 00 00 00
 (1789039978.960964)  can0  181   [8]  21 14 21 14 00 00 00 00
 (1789039978.961497)  can0  601   [8]  40 6C 60 03 00 00 00 00
 (1789039978.961842)  can0  581   [8]  43 6C 60 03 00 00 00 00
 (1789039979.010910)  can0  181   [8]  21 14 21 14 00 00 00 00
 (1789039979.060857)  can0  181   [8]  21 14 21 14 00 00 00 00
 (1789039979.110806)  can0  181   [8]  21 14 21 14 00 00 00 00
 (1789039979.160753)  can0  181   [8]  21 14 21 14 00 00 00 00
 (1789039979.210701)  can0  181   [8]  21 14 21 14 00 00 00 00
 (1789039979.260647)  can0  181   [8]  21 14 21 14 00 00 00 00
 (1789039979.310595)  can0  181   [8]  21 14 21 14 00 00 00 00
 (1789039979.360542)  can0  181   [8]  21 14 21 14 00 00 00 00
 (1789039979.361093)  can0  601   [8]  40 41 60 00 00 00 00 00
 (1789039979.361414)  can0  581   [8]  43 41 60 00 21 14 21 14
 (1789039979.367260)  can0  601   [8]  40 6C 60 01 00 00 00 00
 (1789039979.367535)  can0  581   [8]  43 6C 60 01 00 00 00 00
 (1789039979.410490)  can0  181   [8]  21 14 21 14 00 00 00 00
 (1789039979.411076)  can0  601   [8]  40 6C 60 02 00 00 00 00
 (1789039979.411369)  can0  581   [8]  43 6C 60 02 00 00 00 00
 (1789039979.460437)  can0  181   [8]  21 14 21 14 00 00 00 00
 (1789039979.460967)  can0  601   [8]  40 6C 60 03 00 00 00 00
 (1789039979.461313)  can0  581   [8]  43 6C 60 03 00 00 00 00
 (1789039979.510386)  can0  181   [8]  21 14 21 14 00 00 00 00
 (1789039979.560333)  can0  181   [8]  21 14 21 14 00 00 00 00
 (1789039979.610280)  can0  181   [8]  21 14 21 14 00 00 00 00
 (1789039979.660227)  can0  181   [8]  21 14 21 14 00 00 00 00
 (1789039979.710174)  can0  181   [8]  21 14 21 14 00 00 00 00
 (1789039979.760123)  can0  181   [8]  21 14 21 14 00 00 00 00
 (1789039979.810071)  can0  181   [8]  21 14 21 14 00 00 00 00
 (1789039979.860017)  can0  181   [8]  21 14 21 14 00 00 00 00
 (1789039979.860682)  can0  601   [8]  40 41 60 00 00 00 00 00
 (1789039979.861013)  can0  581   [8]  43 41 60 00 21 14 21 14
 (1789039979.867142)  can0  601   [8]  40 6C 60 01 00 00 00 00
 (1789039979.867387)  can0  581   [8]  43 6C 60 01 00 00 00 00
 (1789039979.909965)  can0  181   [8]  21 14 21 14 00 00 00 00
 (1789039979.910672)  can0  601   [8]  40 6C 60 02 00 00 00 00
 (1789039979.911021)  can0  581   [8]  43 6C 60 02 00 00 00 00
 (1789039979.959910)  can0  181   [8]  21 14 21 14 00 00 00 00
 (1789039979.960499)  can0  601   [8]  40 6C 60 03 00 00 00 00
 (1789039979.960848)  can0  581   [8]  43 6C 60 03 00 00 00 00
 (1789039980.009859)  can0  181   [8]  21 14 21 14 00 00 00 00
 (1789039980.059807)  can0  181   [8]  21 14 21 14 00 00 00 00
 (1789039980.109753)  can0  181   [8]  21 14 21 14 00 00 00 00
 (1789039980.159701)  can0  181   [8]  21 14 21 14 00 00 00 00
 (1789039980.209648)  can0  181   [8]  21 14 21 14 00 00 00 00
 (1789039980.259595)  can0  181   [8]  21 14 21 14 00 00 00 00
 (1789039980.309541)  can0  181   [8]  21 14 21 14 00 00 00 00
 (1789039980.359492)  can0  181   [8]  21 14 21 14 00 00 00 00
 (1789039980.360151)  can0  601   [8]  40 41 60 00 00 00 00 00
 (1789039980.360425)  can0  581   [8]  43 41 60 00 21 14 21 14
 (1789039980.367143)  can0  601   [8]  40 6C 60 01 00 00 00 00
 (1789039980.367418)  can0  581   [8]  43 6C 60 01 00 00 00 00
 (1789039980.409438)  can0  181   [8]  21 14 21 14 00 00 00 00
 (1789039980.410077)  can0  601   [8]  40 6C 60 02 00 00 00 00
 (1789039980.410321)  can0  581   [8]  43 6C 60 02 00 00 00 00
 (1789039980.459386)  can0  181   [8]  21 14 21 14 00 00 00 00
 (1789039980.459940)  can0  601   [8]  40 6C 60 03 00 00 00 00
 (1789039980.460202)  can0  581   [8]  43 6C 60 03 00 00 00 00
 (1789039980.509332)  can0  181   [8]  21 14 21 14 00 00 00 00
 (1789039980.559281)  can0  181   [8]  21 14 21 14 00 00 00 00
 (1789039980.609228)  can0  181   [8]  21 14 21 14 00 00 00 00
 (1789039980.659174)  can0  181   [8]  21 14 21 14 00 00 00 00
 (1789039980.709126)  can0  181   [8]  21 14 21 14 00 00 00 00
 (1789039980.759071)  can0  181   [8]  21 14 21 14 00 00 00 00
 (1789039980.809017)  can0  181   [8]  21 14 21 14 00 00 00 00
 (1789039980.858964)  can0  181   [8]  21 14 21 14 00 00 00 00
 (1789039980.859650)  can0  601   [8]  40 41 60 00 00 00 00 00
 (1789039980.859953)  can0  581   [8]  43 41 60 00 21 14 21 14
 (1789039980.867151)  can0  601   [8]  40 6C 60 01 00 00 00 00
 (1789039980.867393)  can0  581   [8]  43 6C 60 01 00 00 00 00
 (1789039980.908911)  can0  181   [8]  21 14 21 14 00 00 00 00
 (1789039980.909559)  can0  601   [8]  40 6C 60 02 00 00 00 00
 (1789039980.909910)  can0  581   [8]  43 6C 60 02 00 00 00 00
 (1789039980.958859)  can0  181   [8]  21 14 21 14 00 00 00 00
 (1789039980.959480)  can0  601   [8]  40 6C 60 03 00 00 00 00
 (1789039980.959797)  can0  581   [8]  43 6C 60 03 00 00 00 00
 (1789039981.008807)  can0  181   [8]  21 14 21 14 00 00 00 00
 (1789039981.058755)  can0  181   [8]  21 14 21 14 00 00 00 00
 (1789039981.108701)  can0  181   [8]  21 14 21 14 00 00 00 00
 (1789039981.158648)  can0  181   [8]  21 14 21 14 00 00 00 00
 (1789039981.208595)  can0  181   [8]  21 14 21 14 00 00 00 00
 (1789039981.258542)  can0  181   [8]  21 14 21 14 00 00 00 00
 (1789039981.308491)  can0  181   [8]  21 14 21 14 00 00 00 00
 (1789039981.358439)  can0  181   [8]  21 14 21 14 00 00 00 00
 (1789039981.359306)  can0  601   [8]  40 41 60 00 00 00 00 00
 (1789039981.359616)  can0  581   [8]  43 41 60 00 21 14 21 14
 (1789039981.367270)  can0  601   [8]  40 6C 60 01 00 00 00 00
 (1789039981.367605)  can0  581   [8]  43 6C 60 01 00 00 00 00
 (1789039981.408385)  can0  181   [8]  21 14 21 14 00 00 00 00
 (1789039981.409457)  can0  601   [8]  40 6C 60 02 00 00 00 00
 (1789039981.409758)  can0  581   [8]  43 6C 60 02 00 00 00 00
 (1789039981.458333)  can0  181   [8]  21 14 21 14 00 00 00 00
 (1789039981.459181)  can0  601   [8]  40 6C 60 03 00 00 00 00
 (1789039981.459517)  can0  581   [8]  43 6C 60 03 00 00 00 00
 (1789039981.508279)  can0  181   [8]  21 14 21 14 00 00 00 00
 (1789039981.558227)  can0  181   [8]  21 14 21 14 00 00 00 00
 (1789039981.608176)  can0  181   [8]  21 14 21 14 00 00 00 00
 (1789039981.658123)  can0  181   [8]  21 14 21 14 00 00 00 00
 (1789039981.708070)  can0  181   [8]  21 14 21 14 00 00 00 00
 (1789039981.758016)  can0  181   [8]  21 14 21 14 00 00 00 00
 (1789039981.807964)  can0  181   [8]  21 14 21 14 00 00 00 00
 (1789039981.857911)  can0  181   [8]  21 14 21 14 00 00 00 00
 (1789039981.858749)  can0  601   [8]  40 41 60 00 00 00 00 00
 (1789039981.859089)  can0  581   [8]  43 41 60 00 21 14 21 14
 (1789039981.867155)  can0  601   [8]  40 6C 60 01 00 00 00 00
 (1789039981.867456)  can0  581   [8]  43 6C 60 01 00 00 00 00
 (1789039981.907859)  can0  181   [8]  21 14 21 14 00 00 00 00
 (1789039981.909155)  can0  601   [8]  40 6C 60 02 00 00 00 00
 (1789039981.909482)  can0  581   [8]  43 6C 60 02 00 00 00 00
 (1789039981.957806)  can0  181   [8]  21 14 21 14 00 00 00 00
 (1789039981.958336)  can0  601   [8]  40 6C 60 03 00 00 00 00
 (1789039981.958684)  can0  581   [8]  43 6C 60 03 00 00 00 00
 (1789039982.007754)  can0  181   [8]  21 14 21 14 00 00 00 00
 (1789039982.057700)  can0  181   [8]  21 14 21 14 00 00 00 00
 (1789039982.107650)  can0  181   [8]  21 14 21 14 00 00 00 00
 (1789039982.157596)  can0  181   [8]  21 14 21 14 00 00 00 00
 (1789039982.207544)  can0  181   [8]  21 14 21 14 00 00 00 00
 (1789039982.257490)  can0  181   [8]  21 14 21 14 00 00 00 00
 (1789039982.307438)  can0  181   [8]  21 14 21 14 00 00 00 00
 (1789039982.357385)  can0  181   [8]  21 14 21 14 00 00 00 00
 (1789039982.358080)  can0  601   [8]  40 41 60 00 00 00 00 00
 (1789039982.358375)  can0  581   [8]  43 41 60 00 21 14 21 14
 (1789039982.367150)  can0  601   [8]  40 6C 60 01 00 00 00 00
 (1789039982.367486)  can0  581   [8]  43 6C 60 01 00 00 00 00
 (1789039982.407334)  can0  181   [8]  21 14 21 14 00 00 00 00
 (1789039982.407960)  can0  601   [8]  40 6C 60 02 00 00 00 00
 (1789039982.408267)  can0  581   [8]  43 6C 60 02 00 00 00 00
 (1789039982.457280)  can0  181   [8]  21 14 21 14 00 00 00 00
 (1789039982.457834)  can0  601   [8]  40 6C 60 03 00 00 00 00
 (1789039982.458158)  can0  581   [8]  43 6C 60 03 00 00 00 00
 (1789039982.507229)  can0  181   [8]  21 14 21 14 00 00 00 00
 (1789039982.557176)  can0  181   [8]  21 14 21 14 00 00 00 00
 (1789039982.607123)  can0  181   [8]  21 14 21 14 00 00 00 00
 (1789039982.657069)  can0  181   [8]  21 14 21 14 00 00 00 00
 (1789039982.707017)  can0  181   [8]  21 14 21 14 00 00 00 00
 (1789039982.756963)  can0  181   [8]  21 14 21 14 00 00 00 00
 (1789039982.806911)  can0  181   [8]  21 14 21 14 00 00 00 00
 (1789039982.856860)  can0  181   [8]  21 14 21 14 00 00 00 00
 (1789039982.857514)  can0  601   [8]  40 41 60 00 00 00 00 00
 (1789039982.857849)  can0  581   [8]  43 41 60 00 21 14 21 14
 (1789039982.867082)  can0  601   [8]  40 6C 60 01 00 00 00 00
 (1789039982.867400)  can0  581   [8]  43 6C 60 01 00 00 00 00
 (1789039982.906808)  can0  181   [8]  21 14 21 14 00 00 00 00
 (1789039982.907395)  can0  601   [8]  40 6C 60 02 00 00 00 00
 (1789039982.907743)  can0  581   [8]  43 6C 60 02 00 00 00 00
 (1789039982.956754)  can0  181   [8]  21 14 21 14 00 00 00 00
 (1789039982.957373)  can0  601   [8]  40 6C 60 03 00 00 00 00
 (1789039982.957689)  can0  581   [8]  43 6C 60 03 00 00 00 00
 (1789039983.006700)  can0  181   [8]  21 14 21 14 00 00 00 00
 (1789039983.056651)  can0  181   [8]  21 14 21 14 00 00 00 00
 (1789039983.106597)  can0  181   [8]  21 14 21 14 00 00 00 00
 (1789039983.156544)  can0  181   [8]  21 14 21 14 00 00 00 00
 (1789039983.206492)  can0  181   [8]  21 14 21 14 00 00 00 00
 (1789039983.256440)  can0  181   [8]  21 14 21 14 00 00 00 00
 (1789039983.306384)  can0  181   [8]  21 14 21 14 00 00 00 00
 (1789039983.356333)  can0  181   [8]  21 14 21 14 00 00 00 00
 (1789039983.357083)  can0  601   [8]  40 41 60 00 00 00 00 00
 (1789039983.357385)  can0  581   [8]  43 41 60 00 21 14 21 14
 (1789039983.367083)  can0  601   [8]  40 6C 60 01 00 00 00 00
 (1789039983.367432)  can0  581   [8]  43 6C 60 01 00 00 00 00
 (1789039983.406281)  can0  181   [8]  21 14 21 14 00 00 00 00
 (1789039983.406956)  can0  601   [8]  40 6C 60 02 00 00 00 00
