 (1789099096.042185)  can0  601   [8]  40 17 10 00 00 00 00 00
 (1789099096.042508)  can0  581   [8]  4B 17 10 00 00 00 00 00
 (1789099096.043264)  can0  601   [8]  2B 17 10 00 F4 01 00 00
 (1789099096.043625)  can0  581   [8]  60 17 10 00 00 00 00 00
 (1789099096.045188)  can0  601   [8]  40 17 10 00 00 00 00 00
 (1789099096.045494)  can0  581   [8]  4B 17 10 00 F4 01 00 00
 (1789099096.292998)  can0  701   [1]  7F
 (1789099096.294201)  can0  601   [8]  40 00 18 01 00 00 00 00
 (1789099096.294545)  can0  581   [8]  43 00 18 01 81 01 00 00
 (1789099096.296136)  can0  601   [8]  40 00 18 02 00 00 00 00
 (1789099096.296541)  can0  581   [8]  4F 00 18 02 FF 00 00 00
 (1789099096.298188)  can0  601   [8]  40 00 18 05 00 00 00 00
 (1789099096.298537)  can0  581   [8]  4B 00 18 05 64 00 00 00
 (1789099096.300190)  can0  601   [8]  40 00 1A 00 00 00 00 00
 (1789099096.300537)  can0  581   [8]  4F 00 1A 00 02 00 00 00
 (1789099096.302131)  can0  601   [8]  40 00 1A 01 00 00 00 00
 (1789099096.302467)  can0  581   [8]  43 00 1A 01 20 00 41 60
 (1789099096.304193)  can0  601   [8]  40 00 1A 02 00 00 00 00
 (1789099096.304517)  can0  581   [8]  43 00 1A 02 20 03 6C 60
 (1789099096.306188)  can0  601   [8]  40 60 60 00 00 00 00 00
 (1789099096.306519)  can0  581   [8]  4F 60 60 00 03 00 00 00
 (1789099096.308132)  can0  601   [8]  40 61 60 00 00 00 00 00
 (1789099096.308453)  can0  581   [8]  4F 61 60 00 03 00 00 00
 (1789099096.310189)  can0  601   [8]  40 FF 60 01 00 00 00 00
 (1789099096.310511)  can0  581   [8]  43 FF 60 01 00 00 00 00
 (1789099096.312190)  can0  601   [8]  40 FF 60 02 00 00 00 00
 (1789099096.312509)  can0  581   [8]  43 FF 60 02 00 00 00 00
 (1789099096.314190)  can0  601   [8]  40 3F 60 00 00 00 00 00
 (1789099096.314501)  can0  581   [8]  43 3F 60 00 00 00 00 00
 (1789099096.316191)  can0  601   [8]  40 6C 60 01 00 00 00 00
 (1789099096.316500)  can0  581   [8]  43 6C 60 01 00 00 00 00
 (1789099096.318186)  can0  601   [8]  40 6C 60 02 00 00 00 00
 (1789099096.318494)  can0  581   [8]  43 6C 60 02 00 00 00 00
 (1789099096.320190)  can0  601   [8]  40 6C 60 03 00 00 00 00
 (1789099096.320488)  can0  581   [8]  43 6C 60 03 00 00 00 00
 (1789099096.322136)  can0  601   [8]  40 0F 20 00 00 00 00 00
 (1789099096.322486)  can0  581   [8]  4B 0F 20 00 01 00 00 00
 (1789099096.324192)  can0  601   [8]  2B 0F 20 00 00 00 00 00
 (1789099096.324547)  can0  581   [8]  60 0F 20 00 00 00 00 00
 (1789099096.326192)  can0  601   [8]  40 0F 20 00 00 00 00 00
 (1789099096.326536)  can0  581   [8]  4B 0F 20 00 00 00 00 00
 (1789099096.328196)  can0  601   [8]  23 FF 60 01 00 00 00 00
 (1789099096.328532)  can0  581   [8]  60 FF 60 01 00 00 00 00
 (1789099096.330188)  can0  601   [8]  40 FF 60 01 00 00 00 00
 (1789099096.330526)  can0  581   [8]  43 FF 60 01 00 00 00 00
 (1789099096.332194)  can0  601   [8]  23 FF 60 02 00 00 00 00
 (1789099096.332466)  can0  581   [8]  60 FF 60 02 00 00 00 00
 (1789099096.334194)  can0  601   [8]  40 FF 60 02 00 00 00 00
 (1789099096.334464)  can0  581   [8]  43 FF 60 02 00 00 00 00
 (1789099096.336027)  can0  000   [2]  01 01
 (1789099096.336451)  can0  181   [8]  21 14 21 14 00 00 00 00
 (1789099096.336494)  can0  281   [0] 
 (1789099096.336650)  can0  381   [0] 
 (1789099096.336690)  can0  481   [0] 
 (1789099096.386455)  can0  181   [8]  21 14 21 14 00 00 00 00
 (1789099096.436401)  can0  181   [8]  21 14 21 14 00 00 00 00
 (1789099096.486295)  can0  181   [8]  21 14 21 14 00 00 00 00
 (1789099096.536241)  can0  181   [8]  21 14 21 14 00 00 00 00
 (1789099096.542480)  can0  701   [1]  05
 (1789099096.544139)  can0  601   [8]  2F 60 60 00 03 00 00 00
 (1789099096.544480)  can0  581   [8]  60 60 60 00 00 00 00 00
 (1789099096.546132)  can0  601   [8]  40 61 60 00 00 00 00 00
 (1789099096.546468)  can0  581   [8]  4F 61 60 00 03 00 00 00
 (1789099096.548142)  can0  601   [8]  2B 40 60 00 06 00 00 00
 (1789099096.548469)  can0  581   [8]  60 40 60 00 00 00 00 00
 (1789099096.586187)  can0  181   [8]  21 14 21 14 00 00 00 00
 (1789099096.587139)  can0  601   [8]  40 6C 60 01 00 00 00 00
 (1789099096.587494)  can0  581   [8]  43 6C 60 01 00 00 00 00
 (1789099096.589129)  can0  601   [8]  40 6C 60 02 00 00 00 00
 (1789099096.589436)  can0  581   [8]  43 6C 60 02 00 00 00 00
 (1789099096.591130)  can0  601   [8]  40 6C 60 03 00 00 00 00
 (1789099096.591485)  can0  581   [8]  43 6C 60 03 00 00 00 00
 (1789099096.593136)  can0  601   [8]  2B 40 60 00 07 00 00 00
 (1789099096.593489)  can0  581   [8]  60 40 60 00 00 00 00 00
 (1789099096.636084)  can0  181   [8]  23 14 23 14 00 00 00 00
 (1789099096.638133)  can0  601   [8]  40 6C 60 01 00 00 00 00
 (1789099096.638443)  can0  581   [8]  43 6C 60 01 00 00 00 00
 (1789099096.640129)  can0  601   [8]  40 6C 60 02 00 00 00 00
 (1789099096.640438)  can0  581   [8]  43 6C 60 02 00 00 00 00
 (1789099096.642131)  can0  601   [8]  40 6C 60 03 00 00 00 00
 (1789099096.642434)  can0  581   [8]  43 6C 60 03 00 00 00 00
 (1789099096.644135)  can0  601   [8]  2B 40 60 00 0F 00 00 00
 (1789099096.644490)  can0  581   [8]  60 40 60 00 00 00 00 00
 (1789099096.686030)  can0  181   [8]  27 14 27 14 00 00 00 00
 (1789099096.688134)  can0  601   [8]  40 6C 60 01 00 00 00 00
 (1789099096.688444)  can0  581   [8]  43 6C 60 01 00 00 00 00
 (1789099096.690130)  can0  601   [8]  40 6C 60 02 00 00 00 00
 (1789099096.690439)  can0  581   [8]  43 6C 60 02 00 00 00 00
 (1789099096.692132)  can0  601   [8]  40 6C 60 03 00 00 00 00
 (1789099096.692435)  can0  581   [8]  43 6C 60 03 00 00 00 00
 (1789099096.694144)  can0  601   [8]  23 FF 60 01 05 00 00 00
 (1789099096.694453)  can0  581   [8]  60 FF 60 01 00 00 00 00
 (1789099096.696131)  can0  601   [8]  40 FF 60 01 00 00 00 00
 (1789099096.696443)  can0  581   [8]  43 FF 60 01 05 00 00 00
 (1789099096.735979)  can0  181   [8]  27 44 27 14 00 00 00 00
 (1789099096.785926)  can0  181   [8]  27 44 27 14 00 00 00 00
 (1789099096.791972)  can0  701   [1]  05
 (1789099096.797136)  can0  601   [8]  40 6C 60 01 00 00 00 00
 (1789099096.797399)  can0  581   [8]  43 6C 60 01 32 00 00 00
 (1789099096.799134)  can0  601   [8]  40 6C 60 02 00 00 00 00
 (1789099096.799393)  can0  581   [8]  43 6C 60 02 00 00 00 00
 (1789099096.801134)  can0  601   [8]  40 6C 60 03 00 00 00 00
 (1789099096.801437)  can0  581   [8]  43 6C 60 03 00 00 00 00
 (1789099096.835874)  can0  181   [8]  27 44 27 14 00 00 00 00
 (1789099096.885821)  can0  181   [8]  27 44 27 14 00 00 00 00
 (1789099096.935767)  can0  181   [8]  27 44 27 14 00 00 00 00
 (1789099096.985761)  can0  181   [8]  27 44 27 14 00 00 00 00
 (1789099097.035664)  can0  181   [8]  27 44 27 14 00 00 00 00
 (1789099097.041511)  can0  701   [1]  05
 (1789099097.085611)  can0  181   [8]  27 44 27 14 00 00 00 00
 (1789099097.135558)  can0  181   [8]  27 44 27 14 00 00 00 00
 (1789099097.185506)  can0  181   [8]  27 44 27 14 00 00 00 00
 (1789099097.235452)  can0  181   [8]  27 44 27 14 00 00 00 00
 (1789099097.285400)  can0  181   [8]  27 44 27 14 00 00 00 00
 (1789099097.291005)  can0  701   [1]  05
 (1789099097.298138)  can0  601   [8]  40 6C 60 01 00 00 00 00
 (1789099097.298475)  can0  581   [8]  43 6C 60 01 2E 00 00 00
 (1789099097.300133)  can0  601   [8]  40 6C 60 02 00 00 00 00
 (1789099097.300470)  can0  581   [8]  43 6C 60 02 00 00 00 00
 (1789099097.302133)  can0  601   [8]  40 6C 60 03 00 00 00 00
 (1789099097.302420)  can0  581   [8]  43 6C 60 03 00 00 00 00
 (1789099097.335348)  can0  181   [8]  27 44 27 14 00 00 00 00
 (1789099097.385339)  can0  181   [8]  27 44 27 14 00 00 00 00
 (1789099097.435243)  can0  181   [8]  27 44 27 14 00 00 00 00
 (1789099097.485189)  can0  181   [8]  27 44 27 14 00 00 00 00
 (1789099097.535136)  can0  181   [8]  27 44 27 14 00 00 00 00
 (1789099097.540549)  can0  701   [1]  05
 (1789099097.585083)  can0  181   [8]  27 44 27 14 00 00 00 00
 (1789099097.635030)  can0  181   [8]  27 44 27 14 00 00 00 00
 (1789099097.684977)  can0  181   [8]  27 44 27 14 00 00 00 00
 (1789099097.734924)  can0  181   [8]  27 44 27 14 00 00 00 00
 (1789099097.784873)  can0  181   [8]  27 44 27 14 00 00 00 00
 (1789099097.790040)  can0  701   [1]  05
 (1789099097.809137)  can0  601   [8]  40 6C 60 01 00 00 00 00
 (1789099097.809440)  can0  581   [8]  43 6C 60 01 2E 00 00 00
 (1789099097.811134)  can0  601   [8]  40 6C 60 02 00 00 00 00
 (1789099097.811433)  can0  581   [8]  43 6C 60 02 00 00 00 00
 (1789099097.813134)  can0  601   [8]  40 6C 60 03 00 00 00 00
 (1789099097.813429)  can0  581   [8]  43 6C 60 03 00 00 00 00
 (1789099097.834821)  can0  181   [8]  27 44 27 14 00 00 00 00
 (1789099097.884767)  can0  181   [8]  27 44 27 14 00 00 00 00
 (1789099097.934715)  can0  181   [8]  27 44 27 14 00 00 00 00
 (1789099097.984661)  can0  181   [8]  27 44 27 14 00 00 00 00
 (1789099098.034609)  can0  181   [8]  27 44 27 14 00 00 00 00
 (1789099098.039584)  can0  701   [1]  05
 (1789099098.084556)  can0  181   [8]  27 44 27 14 00 00 00 00
 (1789099098.134503)  can0  181   [8]  27 44 27 14 00 00 00 00
 (1789099098.184452)  can0  181   [8]  27 44 27 14 00 00 00 00
 (1789099098.234399)  can0  181   [8]  27 44 27 14 00 00 00 00
 (1789099098.284346)  can0  181   [8]  27 44 27 14 00 00 00 00
 (1789099098.289074)  can0  701   [1]  05
 (1789099098.320139)  can0  601   [8]  40 6C 60 01 00 00 00 00
 (1789099098.320440)  can0  581   [8]  43 6C 60 01 35 00 00 00
 (1789099098.322134)  can0  601   [8]  40 6C 60 02 00 00 00 00
 (1789099098.322437)  can0  581   [8]  43 6C 60 02 00 00 00 00
 (1789099098.324136)  can0  601   [8]  40 6C 60 03 00 00 00 00
 (1789099098.324483)  can0  581   [8]  43 6C 60 03 00 00 00 00
 (1789099098.334293)  can0  181   [8]  27 44 27 14 00 00 00 00
 (1789099098.384241)  can0  181   [8]  27 44 27 14 00 00 00 00
 (1789099098.434188)  can0  181   [8]  27 44 27 14 00 00 00 00
 (1789099098.484134)  can0  181   [8]  27 44 27 14 00 00 00 00
 (1789099098.534081)  can0  181   [8]  27 44 27 14 00 00 00 00
 (1789099098.538622)  can0  701   [1]  05
 (1789099098.584030)  can0  181   [8]  27 44 27 14 00 00 00 00
 (1789099098.633978)  can0  181   [8]  27 44 27 14 00 00 00 00
 (1789099098.683925)  can0  181   [8]  27 44 27 14 00 00 00 00
 (1789099098.733871)  can0  181   [8]  27 44 27 14 00 00 00 00
 (1789099098.783818)  can0  181   [8]  27 44 27 14 00 00 00 00
 (1789099098.788110)  can0  701   [1]  05
 (1789099098.820138)  can0  601   [8]  40 6C 60 01 00 00 00 00
 (1789099098.820461)  can0  581   [8]  43 6C 60 01 30 00 00 00
 (1789099098.822132)  can0  601   [8]  40 6C 60 02 00 00 00 00
 (1789099098.822415)  can0  581   [8]  43 6C 60 02 00 00 00 00
 (1789099098.824135)  can0  601   [8]  40 6C 60 03 00 00 00 00
 (1789099098.824411)  can0  581   [8]  43 6C 60 03 00 00 00 00
 (1789099098.833767)  can0  181   [8]  27 44 27 14 00 00 00 00
 (1789099098.883713)  can0  181   [8]  27 44 27 14 00 00 00 00
 (1789099098.933661)  can0  181   [8]  27 44 27 14 00 00 00 00
 (1789099098.983608)  can0  181   [8]  27 44 27 14 00 00 00 00
 (1789099099.033615)  can0  181   [8]  27 44 27 14 00 00 00 00
 (1789099099.037659)  can0  701   [1]  05
 (1789099099.083503)  can0  181   [8]  27 44 27 14 00 00 00 00
 (1789099099.133450)  can0  181   [8]  27 44 27 14 00 00 00 00
 (1789099099.183397)  can0  181   [8]  27 44 27 14 00 00 00 00
 (1789099099.233346)  can0  181   [8]  27 44 27 14 00 00 00 00
 (1789099099.283291)  can0  181   [8]  27 44 27 14 00 00 00 00
 (1789099099.287145)  can0  701   [1]  05
 (1789099099.320142)  can0  601   [8]  40 6C 60 01 00 00 00 00
 (1789099099.320443)  can0  581   [8]  43 6C 60 01 30 00 00 00
 (1789099099.322133)  can0  601   [8]  40 6C 60 02 00 00 00 00
 (1789099099.322437)  can0  581   [8]  43 6C 60 02 00 00 00 00
 (1789099099.324135)  can0  601   [8]  40 6C 60 03 00 00 00 00
 (1789099099.324438)  can0  581   [8]  43 6C 60 03 00 00 00 00
 (1789099099.333239)  can0  181   [8]  27 44 27 14 00 00 00 00
 (1789099099.383186)  can0  181   [8]  27 44 27 14 00 00 00 00
 (1789099099.433133)  can0  181   [8]  27 44 27 14 00 00 00 00
 (1789099099.483080)  can0  181   [8]  27 44 27 14 00 00 00 00
 (1789099099.533029)  can0  181   [8]  27 44 27 14 00 00 00 00
 (1789099099.536694)  can0  701   [1]  05
 (1789099099.582976)  can0  181   [8]  27 44 27 14 00 00 00 00
 (1789099099.632924)  can0  181   [8]  27 44 27 14 00 00 00 00
 (1789099099.682870)  can0  181   [8]  27 44 27 14 00 00 00 00
 (1789099099.695142)  can0  601   [8]  23 FF 60 01 00 00 00 00
 (1789099099.695450)  can0  581   [8]  60 FF 60 01 00 00 00 00
 (1789099099.697130)  can0  601   [8]  40 FF 60 01 00 00 00 00
 (1789099099.697401)  can0  581   [8]  43 FF 60 01 00 00 00 00
 (1789099099.699135)  can0  601   [8]  23 FF 60 01 00 00 00 00
 (1789099099.699444)  can0  581   [8]  60 FF 60 01 00 00 00 00
 (1789099099.701127)  can0  601   [8]  40 FF 60 01 00 00 00 00
 (1789099099.701393)  can0  581   [8]  43 FF 60 01 00 00 00 00
 (1789099099.703137)  can0  601   [8]  23 FF 60 02 00 00 00 00
 (1789099099.703444)  can0  581   [8]  60 FF 60 02 00 00 00 00
 (1789099099.705129)  can0  601   [8]  40 FF 60 02 00 00 00 00
 (1789099099.705438)  can0  581   [8]  43 FF 60 02 00 00 00 00
 (1789099099.707139)  can0  601   [8]  2B 40 60 00 06 00 00 00
 (1789099099.707488)  can0  581   [8]  60 40 60 00 00 00 00 00
 (1789099099.732867)  can0  181   [8]  21 54 21 14 00 00 00 00
 (1789099099.733137)  can0  601   [8]  40 6C 60 01 00 00 00 00
 (1789099099.733492)  can0  581   [8]  43 6C 60 01 14 00 00 00
 (1789099099.782815)  can0  181   [8]  21 14 21 14 00 00 00 00
 (1789099099.786133)  can0  601   [8]  40 6C 60 01 00 00 00 00
 (1789099099.786255)  can0  701   [1]  05
 (1789099099.786492)  can0  581   [8]  43 6C 60 01 E7 FF FF FF
 (1789099099.832765)  can0  181   [8]  21 14 21 14 00 00 00 00
 (1789099099.839131)  can0  601   [8]  40 6C 60 01 00 00 00 00
 (1789099099.839438)  can0  581   [8]  43 6C 60 01 04 00 00 00
 (1789099099.882709)  can0  181   [8]  21 14 21 14 00 00 00 00
 (1789099099.892131)  can0  601   [8]  40 6C 60 01 00 00 00 00
 (1789099099.892440)  can0  581   [8]  43 6C 60 01 FD FF FF FF
 (1789099099.932658)  can0  181   [8]  21 14 21 14 00 00 00 00
 (1789099099.945132)  can0  601   [8]  40 6C 60 01 00 00 00 00
 (1789099099.945443)  can0  581   [8]  43 6C 60 01 FB FF FF FF
 (1789099099.982604)  can0  181   [8]  21 14 21 14 00 00 00 00
 (1789099099.998131)  can0  601   [8]  40 6C 60 01 00 00 00 00
 (1789099099.998448)  can0  581   [8]  43 6C 60 01 FF FF FF FF
 (1789099100.032552)  can0  181   [8]  21 14 21 14 00 00 00 00
 (1789099100.035735)  can0  701   [1]  05
 (1789099100.051131)  can0  601   [8]  40 6C 60 01 00 00 00 00
 (1789099100.051450)  can0  581   [8]  43 6C 60 01 FF FF FF FF
 (1789099100.082502)  can0  181   [8]  21 14 21 14 00 00 00 00
 (1789099100.104132)  can0  601   [8]  40 6C 60 01 00 00 00 00
 (1789099100.104449)  can0  581   [8]  43 6C 60 01 00 00 00 00
 (1789099100.106129)  can0  601   [8]  40 6C 60 02 00 00 00 00
 (1789099100.106445)  can0  581   [8]  43 6C 60 02 00 00 00 00
 (1789099100.108129)  can0  601   [8]  40 6C 60 03 00 00 00 00
 (1789099100.108438)  can0  581   [8]  43 6C 60 03 00 00 00 00
 (1789099100.110025)  can0  000   [2]  80 01
 (1789099100.285225)  can0  701   [1]  7F
 (1789099100.287133)  can0  601   [8]  2B 0F 20 00 01 00 00 00
 (1789099100.287470)  can0  581   [8]  60 0F 20 00 00 00 00 00
 (1789099100.289135)  can0  601   [8]  40 0F 20 00 00 00 00 00
 (1789099100.289462)  can0  581   [8]  4B 0F 20 00 01 00 00 00
 (1789099100.291130)  can0  601   [8]  2B 17 10 00 00 00 00 00
 (1789099100.291461)  can0  581   [8]  60 17 10 00 00 00 00 00
 (1789099100.293128)  can0  601   [8]  40 17 10 00 00 00 00 00
 (1789099100.293453)  can0  581   [8]  4B 17 10 00 00 00 00 00
