 (1789025978.449616)  can0  601   [8]  40 41 60 00 00 00 00 00
 (1789025978.449954)  can0  581   [8]  43 41 60 00 21 14 21 14
 (1789025978.451525)  can0  601   [8]  40 FF 60 01 00 00 00 00
 (1789025978.451841)  can0  581   [8]  43 FF 60 01 00 00 00 00
 (1789025978.453513)  can0  601   [8]  40 FF 60 02 00 00 00 00
 (1789025978.453841)  can0  581   [8]  43 FF 60 02 00 00 00 00
 (1789025978.455509)  can0  601   [8]  40 3F 60 00 00 00 00 00
 (1789025978.455829)  can0  581   [8]  43 3F 60 00 00 00 00 00
 (1789025978.457508)  can0  601   [8]  40 6C 60 01 00 00 00 00
 (1789025978.457820)  can0  581   [8]  43 6C 60 01 00 00 00 00
 (1789025978.459500)  can0  601   [8]  40 6C 60 02 00 00 00 00
 (1789025978.459815)  can0  581   [8]  43 6C 60 02 00 00 00 00
 (1789025978.461503)  can0  601   [8]  40 6C 60 03 00 00 00 00
 (1789025978.461813)  can0  581   [8]  43 6C 60 03 00 00 00 00
 (1789025978.463505)  can0  601   [8]  40 17 10 00 00 00 00 00
 (1789025978.463817)  can0  581   [8]  4B 17 10 00 00 00 00 00
 (1789025978.465507)  can0  601   [8]  40 00 18 01 00 00 00 00
 (1789025978.465867)  can0  581   [8]  43 00 18 01 81 01 00 00
 (1789025978.467502)  can0  601   [8]  40 00 18 02 00 00 00 00
 (1789025978.467861)  can0  581   [8]  4F 00 18 02 FF 00 00 00
 (1789025978.469502)  can0  601   [8]  40 00 18 05 00 00 00 00
 (1789025978.469801)  can0  581   [8]  4B 00 18 05 64 00 00 00
 (1789025978.471504)  can0  601   [8]  40 00 1A 00 00 00 00 00
 (1789025978.471856)  can0  581   [8]  4F 00 1A 00 02 00 00 00
 (1789025978.473503)  can0  601   [8]  40 00 1A 01 00 00 00 00
 (1789025978.473847)  can0  581   [8]  43 00 1A 01 20 00 41 60
 (1789025978.475508)  can0  601   [8]  40 00 1A 02 00 00 00 00
 (1789025978.475838)  can0  581   [8]  43 00 1A 02 20 03 6C 60
 (1789025978.477513)  can0  601   [8]  2B 17 10 00 F4 01 00 00
 (1789025978.477845)  can0  581   [8]  60 17 10 00 00 00 00 00
 (1789025978.479501)  can0  601   [8]  40 17 10 00 00 00 00 00
 (1789025978.479833)  can0  581   [8]  4B 17 10 00 F4 01 00 00
 (1789025978.481401)  can0  000   [2]  80 01
 (1789025978.727214)  can0  701   [1]  7F
 (1789025978.728461)  can0  601   [8]  23 00 18 01 81 01 00 80
 (1789025978.728780)  can0  581   [8]  60 00 18 01 00 00 00 00
 (1789025978.730448)  can0  601   [8]  40 00 18 01 00 00 00 00
 (1789025978.730764)  can0  581   [8]  43 00 18 01 81 01 00 80
 (1789025978.732460)  can0  601   [8]  2F 00 1A 00 00 00 00 00
 (1789025978.732822)  can0  581   [8]  60 00 1A 00 00 00 00 00
 (1789025978.734502)  can0  601   [8]  40 00 1A 00 00 00 00 00
 (1789025978.734757)  can0  581   [8]  4F 00 1A 00 00 00 00 00
 (1789025978.736448)  can0  601   [8]  23 00 1A 01 20 03 6C 60
 (1789025978.736762)  can0  581   [8]  60 00 1A 01 00 00 00 00
 (1789025978.738500)  can0  601   [8]  40 00 1A 01 00 00 00 00
 (1789025978.738749)  can0  581   [8]  43 00 1A 01 20 03 6C 60
 (1789025978.740506)  can0  601   [8]  23 00 1A 02 20 00 41 60
 (1789025978.740864)  can0  581   [8]  60 00 1A 02 00 00 00 00
 (1789025978.742446)  can0  601   [8]  40 00 1A 02 00 00 00 00
 (1789025978.742796)  can0  581   [8]  43 00 1A 02 20 00 41 60
 (1789025978.744510)  can0  601   [8]  2F 00 1A 00 02 00 00 00
 (1789025978.744800)  can0  581   [8]  60 00 1A 00 00 00 00 00
 (1789025978.746443)  can0  601   [8]  40 00 1A 00 00 00 00 00
 (1789025978.746795)  can0  581   [8]  4F 00 1A 00 02 00 00 00
 (1789025978.748506)  can0  601   [8]  2F 00 18 02 FF 00 00 00
 (1789025978.748789)  can0  581   [8]  60 00 18 02 00 00 00 00
 (1789025978.750498)  can0  601   [8]  40 00 18 02 00 00 00 00
 (1789025978.750838)  can0  581   [8]  4F 00 18 02 FF 00 00 00
 (1789025978.752447)  can0  601   [8]  2B 00 18 05 64 00 00 00
 (1789025978.752782)  can0  581   [8]  60 00 18 05 00 00 00 00
 (1789025978.754498)  can0  601   [8]  40 00 18 05 00 00 00 00
 (1789025978.754772)  can0  581   [8]  4B 00 18 05 64 00 00 00
 (1789025978.756449)  can0  601   [8]  23 00 18 01 81 01 00 00
 (1789025978.756776)  can0  581   [8]  60 00 18 01 00 00 00 00
 (1789025978.758503)  can0  601   [8]  40 00 18 01 00 00 00 00
 (1789025978.758764)  can0  581   [8]  43 00 18 01 81 01 00 00
 (1789025978.760343)  can0  000   [2]  01 01
 (1789025978.760758)  can0  181   [8]  00 00 00 00 21 14 21 14
 (1789025978.760859)  can0  281   [0] 
 (1789025978.760900)  can0  381   [0] 
 (1789025978.760998)  can0  481   [0] 
 (1789025978.810758)  can0  181   [8]  00 00 00 00 21 14 21 14
 (1789025978.860708)  can0  181   [8]  00 00 00 00 21 14 21 14
 (1789025978.910655)  can0  181   [8]  00 00 00 00 21 14 21 14
 (1789025978.960603)  can0  181   [8]  00 00 00 00 21 14 21 14
 (1789025978.976822)  can0  701   [1]  05
 (1789025978.978514)  can0  601   [8]  40 41 60 00 00 00 00 00
 (1789025978.978816)  can0  581   [8]  43 41 60 00 21 14 21 14
 (1789025978.991511)  can0  601   [8]  40 41 60 00 00 00 00 00
 (1789025978.991838)  can0  581   [8]  43 41 60 00 21 14 21 14
 (1789025978.993509)  can0  601   [8]  40 6C 60 01 00 00 00 00
 (1789025978.993842)  can0  581   [8]  43 6C 60 01 00 00 00 00
 (1789025978.995525)  can0  601   [8]  40 6C 60 02 00 00 00 00
 (1789025978.995838)  can0  581   [8]  43 6C 60 02 00 00 00 00
 (1789025978.997508)  can0  601   [8]  40 6C 60 03 00 00 00 00
 (1789025978.997834)  can0  581   [8]  43 6C 60 03 00 00 00 00
 (1789025979.010552)  can0  181   [8]  00 00 00 00 21 14 21 14
 (1789025979.060500)  can0  181   [8]  00 00 00 00 21 14 21 14
 (1789025979.110436)  can0  181   [8]  00 00 00 00 21 14 21 14
 (1789025979.160399)  can0  181   [8]  00 00 00 00 21 14 21 14
 (1789025979.210344)  can0  181   [8]  00 00 00 00 21 14 21 14
 (1789025979.226314)  can0  701   [1]  05
 (1789025979.260292)  can0  181   [8]  00 00 00 00 21 14 21 14
 (1789025979.310242)  can0  181   [8]  00 00 00 00 21 14 21 14
 (1789025979.360191)  can0  181   [8]  00 00 00 00 21 14 21 14
 (1789025979.410139)  can0  181   [8]  00 00 00 00 21 14 21 14
 (1789025979.460085)  can0  181   [8]  00 00 00 00 21 14 21 14
 (1789025979.475868)  can0  701   [1]  05
 (1789025979.510033)  can0  181   [8]  00 00 00 00 21 14 21 14
 (1789025979.559981)  can0  181   [8]  00 00 00 00 21 14 21 14
 (1789025979.609929)  can0  181   [8]  00 00 00 00 21 14 21 14
 (1789025979.659877)  can0  181   [8]  00 00 00 00 21 14 21 14
 (1789025979.709826)  can0  181   [8]  00 00 00 00 21 14 21 14
 (1789025979.725357)  can0  701   [1]  05
 (1789025979.759775)  can0  181   [8]  00 00 00 00 21 14 21 14
 (1789025979.809723)  can0  181   [8]  00 00 00 00 21 14 21 14
 (1789025979.859670)  can0  181   [8]  00 00 00 00 21 14 21 14
 (1789025979.909619)  can0  181   [8]  00 00 00 00 21 14 21 14
 (1789025979.959565)  can0  181   [8]  00 00 00 00 21 14 21 14
 (1789025979.974911)  can0  701   [1]  05
 (1789025979.996535)  can0  601   [8]  40 41 60 00 00 00 00 00
 (1789025979.996850)  can0  581   [8]  43 41 60 00 21 14 21 14
 (1789025979.998515)  can0  601   [8]  40 6C 60 01 00 00 00 00
 (1789025979.998854)  can0  581   [8]  43 6C 60 01 00 00 00 00
 (1789025980.000517)  can0  601   [8]  40 6C 60 02 00 00 00 00
 (1789025980.000851)  can0  581   [8]  43 6C 60 02 00 00 00 00
 (1789025980.002510)  can0  601   [8]  40 6C 60 03 00 00 00 00
 (1789025980.002844)  can0  581   [8]  43 6C 60 03 00 00 00 00
 (1789025980.009515)  can0  181   [8]  00 00 00 00 21 14 21 14
 (1789025980.059463)  can0  181   [8]  00 00 00 00 21 14 21 14
 (1789025980.109412)  can0  181   [8]  00 00 00 00 21 14 21 14
 (1789025980.159359)  can0  181   [8]  00 00 00 00 21 14 21 14
 (1789025980.209306)  can0  181   [8]  00 00 00 00 21 14 21 14
 (1789025980.224401)  can0  701   [1]  05
 (1789025980.259257)  can0  181   [8]  00 00 00 00 21 14 21 14
 (1789025980.309204)  can0  181   [8]  00 00 00 00 21 14 21 14
 (1789025980.359153)  can0  181   [8]  00 00 00 00 21 14 21 14
 (1789025980.409099)  can0  181   [8]  00 00 00 00 21 14 21 14
 (1789025980.459046)  can0  181   [8]  00 00 00 00 21 14 21 14
 (1789025980.473955)  can0  701   [1]  05
 (1789025980.508994)  can0  181   [8]  00 00 00 00 21 14 21 14
 (1789025980.558942)  can0  181   [8]  00 00 00 00 21 14 21 14
 (1789025980.608892)  can0  181   [8]  00 00 00 00 21 14 21 14
 (1789025980.658841)  can0  181   [8]  00 00 00 00 21 14 21 14
 (1789025980.708787)  can0  181   [8]  00 00 00 00 21 14 21 14
 (1789025980.723445)  can0  701   [1]  05
 (1789025980.758736)  can0  181   [8]  00 00 00 00 21 14 21 14
 (1789025980.808683)  can0  181   [8]  00 00 00 00 21 14 21 14
 (1789025980.858632)  can0  181   [8]  00 00 00 00 21 14 21 14
 (1789025980.908581)  can0  181   [8]  00 00 00 00 21 14 21 14
 (1789025980.958529)  can0  181   [8]  00 00 00 00 21 14 21 14
 (1789025980.972999)  can0  701   [1]  05
 (1789025981.004529)  can0  601   [8]  40 41 60 00 00 00 00 00
 (1789025981.004854)  can0  581   [8]  43 41 60 00 21 14 21 14
 (1789025981.006512)  can0  601   [8]  40 6C 60 01 00 00 00 00
 (1789025981.006858)  can0  581   [8]  43 6C 60 01 00 00 00 00
 (1789025981.008477)  can0  181   [8]  00 00 00 00 21 14 21 14
 (1789025981.008715)  can0  601   [8]  40 6C 60 02 00 00 00 00
 (1789025981.009039)  can0  581   [8]  43 6C 60 02 00 00 00 00
 (1789025981.010510)  can0  601   [8]  40 6C 60 03 00 00 00 00
 (1789025981.010847)  can0  581   [8]  43 6C 60 03 00 00 00 00
 (1789025981.058425)  can0  181   [8]  00 00 00 00 21 14 21 14
 (1789025981.108372)  can0  181   [8]  00 00 00 00 21 14 21 14
 (1789025981.158320)  can0  181   [8]  00 00 00 00 21 14 21 14
 (1789025981.208267)  can0  181   [8]  00 00 00 00 21 14 21 14
 (1789025981.222492)  can0  701   [1]  05
 (1789025981.258218)  can0  181   [8]  00 00 00 00 21 14 21 14
 (1789025981.308166)  can0  181   [8]  00 00 00 00 21 14 21 14
 (1789025981.358117)  can0  181   [8]  00 00 00 00 21 14 21 14
 (1789025981.408063)  can0  181   [8]  00 00 00 00 21 14 21 14
 (1789025981.458008)  can0  181   [8]  00 00 00 00 21 14 21 14
 (1789025981.472045)  can0  701   [1]  05
 (1789025981.507957)  can0  181   [8]  00 00 00 00 21 14 21 14
 (1789025981.557904)  can0  181   [8]  00 00 00 00 21 14 21 14
 (1789025981.607854)  can0  181   [8]  00 00 00 00 21 14 21 14
 (1789025981.657802)  can0  181   [8]  00 00 00 00 21 14 21 14
 (1789025981.707750)  can0  181   [8]  00 00 00 00 21 14 21 14
 (1789025981.721537)  can0  701   [1]  05
 (1789025981.757699)  can0  181   [8]  00 00 00 00 21 14 21 14
 (1789025981.807647)  can0  181   [8]  00 00 00 00 21 14 21 14
 (1789025981.857595)  can0  181   [8]  00 00 00 00 21 14 21 14
 (1789025981.907542)  can0  181   [8]  00 00 00 00 21 14 21 14
 (1789025981.957491)  can0  181   [8]  00 00 00 00 21 14 21 14
 (1789025981.971087)  can0  701   [1]  05
 (1789025982.007502)  can0  181   [8]  00 00 00 00 21 14 21 14
 (1789025982.010538)  can0  601   [8]  40 41 60 00 00 00 00 00
 (1789025982.010862)  can0  581   [8]  43 41 60 00 21 14 21 14
 (1789025982.012519)  can0  601   [8]  40 6C 60 01 00 00 00 00
 (1789025982.012866)  can0  581   [8]  43 6C 60 01 00 00 00 00
 (1789025982.014520)  can0  601   [8]  40 6C 60 02 00 00 00 00
 (1789025982.014861)  can0  581   [8]  43 6C 60 02 00 00 00 00
 (1789025982.016507)  can0  601   [8]  40 6C 60 03 00 00 00 00
 (1789025982.016858)  can0  581   [8]  43 6C 60 03 00 00 00 00
 (1789025982.057448)  can0  181   [8]  00 00 00 00 21 14 21 14
 (1789025982.107403)  can0  181   [8]  00 00 00 00 21 14 21 14
 (1789025982.157348)  can0  181   [8]  00 00 00 00 21 14 21 14
 (1789025982.207295)  can0  181   [8]  00 00 00 00 21 14 21 14
 (1789025982.220642)  can0  701   [1]  05
 (1789025982.257241)  can0  181   [8]  00 00 00 00 21 14 21 14
 (1789025982.307189)  can0  181   [8]  00 00 00 00 21 14 21 14
 (1789025982.357103)  can0  181   [8]  00 00 00 00 21 14 21 14
 (1789025982.407084)  can0  181   [8]  00 00 00 00 21 14 21 14
 (1789025982.457034)  can0  181   [8]  00 00 00 00 21 14 21 14
 (1789025982.470210)  can0  701   [1]  05
 (1789025982.506983)  can0  181   [8]  00 00 00 00 21 14 21 14
 (1789025982.556931)  can0  181   [8]  00 00 00 00 21 14 21 14
 (1789025982.606882)  can0  181   [8]  00 00 00 00 21 14 21 14
 (1789025982.656825)  can0  181   [8]  00 00 00 00 21 14 21 14
 (1789025982.706772)  can0  181   [8]  00 00 00 00 21 14 21 14
 (1789025982.719687)  can0  701   [1]  05
 (1789025982.756723)  can0  181   [8]  00 00 00 00 21 14 21 14
 (1789025982.806671)  can0  181   [8]  00 00 00 00 21 14 21 14
 (1789025982.856618)  can0  181   [8]  00 00 00 00 21 14 21 14
 (1789025982.906567)  can0  181   [8]  00 00 00 00 21 14 21 14
 (1789025982.956517)  can0  181   [8]  00 00 00 00 21 14 21 14
 (1789025982.969179)  can0  701   [1]  05
 (1789025983.006462)  can0  181   [8]  00 00 00 00 21 14 21 14
 (1789025983.015534)  can0  601   [8]  40 41 60 00 00 00 00 00
 (1789025983.015874)  can0  581   [8]  43 41 60 00 21 14 21 14
 (1789025983.017518)  can0  601   [8]  40 6C 60 01 00 00 00 00
 (1789025983.017874)  can0  581   [8]  43 6C 60 01 00 00 00 00
 (1789025983.019518)  can0  601   [8]  40 6C 60 02 00 00 00 00
 (1789025983.019873)  can0  581   [8]  43 6C 60 02 00 00 00 00
 (1789025983.021512)  can0  601   [8]  40 6C 60 03 00 00 00 00
 (1789025983.021867)  can0  581   [8]  43 6C 60 03 00 00 00 00
 (1789025983.056410)  can0  181   [8]  00 00 00 00 21 14 21 14
 (1789025983.106360)  can0  181   [8]  00 00 00 00 21 14 21 14
 (1789025983.156310)  can0  181   [8]  00 00 00 00 21 14 21 14
 (1789025983.206255)  can0  181   [8]  00 00 00 00 21 14 21 14
 (1789025983.218732)  can0  701   [1]  05
 (1789025983.256203)  can0  181   [8]  00 00 00 00 21 14 21 14
 (1789025983.306152)  can0  181   [8]  00 00 00 00 21 14 21 14
 (1789025983.356100)  can0  181   [8]  00 00 00 00 21 14 21 14
 (1789025983.406047)  can0  181   [8]  00 00 00 00 21 14 21 14
 (1789025983.455996)  can0  181   [8]  00 00 00 00 21 14 21 14
 (1789025983.468223)  can0  701   [1]  05
 (1789025983.505945)  can0  181   [8]  00 00 00 00 21 14 21 14
 (1789025983.555893)  can0  181   [8]  00 00 00 00 21 14 21 14
 (1789025983.605840)  can0  181   [8]  00 00 00 00 21 14 21 14
 (1789025983.655788)  can0  181   [8]  00 00 00 00 21 14 21 14
 (1789025983.705735)  can0  181   [8]  00 00 00 00 21 14 21 14
 (1789025983.717776)  can0  701   [1]  05
 (1789025983.755683)  can0  181   [8]  00 00 00 00 21 14 21 14
 (1789025983.805633)  can0  181   [8]  00 00 00 00 21 14 21 14
 (1789025983.855582)  can0  181   [8]  00 00 00 00 21 14 21 14
 (1789025983.905530)  can0  181   [8]  00 00 00 00 21 14 21 14
 (1789025983.955476)  can0  181   [8]  00 00 00 00 21 14 21 14
 (1789025983.967267)  can0  701   [1]  05
 (1789025984.005425)  can0  181   [8]  00 00 00 00 21 14 21 14
 (1789025984.022512)  can0  601   [8]  40 41 60 00 00 00 00 00
 (1789025984.022759)  can0  581   [8]  43 41 60 00 21 14 21 14
 (1789025984.024508)  can0  601   [8]  40 6C 60 01 00 00 00 00
 (1789025984.024821)  can0  581   [8]  43 6C 60 01 00 00 00 00
 (1789025984.026510)  can0  601   [8]  40 6C 60 02 00 00 00 00
 (1789025984.026761)  can0  581   [8]  43 6C 60 02 00 00 00 00
 (1789025984.028506)  can0  601   [8]  40 6C 60 03 00 00 00 00
 (1789025984.028814)  can0  581   [8]  43 6C 60 03 00 00 00 00
 (1789025984.055373)  can0  181   [8]  00 00 00 00 21 14 21 14
 (1789025984.105320)  can0  181   [8]  00 00 02 00 21 14 21 14
 (1789025984.155268)  can0  181   [8]  00 00 00 00 21 14 21 14
 (1789025984.205219)  can0  181   [8]  00 00 08 00 21 14 21 14
 (1789025984.216820)  can0  701   [1]  05
 (1789025984.255163)  can0  181   [8]  00 00 2D 00 21 14 21 14
 (1789025984.305174)  can0  181   [8]  00 00 5C 00 21 14 21 14
 (1789025984.355121)  can0  181   [8]  00 00 8F 00 21 14 21 14
 (1789025984.405070)  can0  181   [8]  00 00 BE 00 21 14 21 14
 (1789025984.455017)  can0  181   [8]  00 00 C4 00 21 14 21 14
 (1789025984.466313)  can0  701   [1]  05
 (1789025984.504967)  can0  181   [8]  00 00 FD 00 21 14 21 14
 (1789025984.554912)  can0  181   [8]  00 00 4D 01 21 14 21 14
 (1789025984.604862)  can0  181   [8]  00 00 6E 01 21 14 21 14
 (1789025984.654808)  can0  181   [8]  00 00 9E 01 21 14 21 14
 (1789025984.704755)  can0  181   [8]  00 00 BD 01 21 14 21 14
 (1789025984.715866)  can0  701   [1]  05
 (1789025984.754701)  can0  181   [8]  00 00 C5 01 21 14 21 14
 (1789025984.804656)  can0  181   [8]  00 00 5E 01 21 14 21 14
 (1789025984.854602)  can0  181   [8]  00 00 DC 00 21 14 21 14
 (1789025984.904551)  can0  181   [8]  00 00 68 00 21 14 21 14
 (1789025984.954500)  can0  181   [8]  00 00 26 00 21 14 21 14
 (1789025984.965357)  can0  701   [1]  05
 (1789025985.004443)  can0  181   [8]  00 00 F5 FF 21 14 21 14
 (1789025985.028509)  can0  601   [8]  40 41 60 00 00 00 00 00
 (1789025985.028827)  can0  581   [8]  43 41 60 00 21 14 21 14
 (1789025985.030506)  can0  601   [8]  40 6C 60 01 00 00 00 00
 (1789025985.030828)  can0  581   [8]  43 6C 60 01 00 00 00 00
 (1789025985.032511)  can0  601   [8]  40 6C 60 02 00 00 00 00
 (1789025985.032824)  can0  581   [8]  43 6C 60 02 FE FF FF FF
 (1789025985.034510)  can0  601   [8]  40 6C 60 03 00 00 00 00
 (1789025985.034821)  can0  581   [8]  43 6C 60 03 00 00 00 00
 (1789025985.054398)  can0  181   [8]  00 00 02 00 21 14 21 14
 (1789025985.104345)  can0  181   [8]  00 00 02 00 21 14 21 14
 (1789025985.154290)  can0  181   [8]  00 00 38 00 21 14 21 14
 (1789025985.204240)  can0  181   [8]  00 00 DA 00 21 14 21 14
 (1789025985.214910)  can0  701   [1]  05
 (1789025985.254185)  can0  181   [8]  00 00 9A 01 21 14 21 14
 (1789025985.304134)  can0  181   [8]  00 00 24 02 21 14 21 14
 (1789025985.354088)  can0  181   [8]  00 00 B0 02 21 14 21 14
 (1789025985.404033)  can0  181   [8]  00 00 9F 02 21 14 21 14
 (1789025985.453977)  can0  181   [8]  00 00 48 02 21 14 21 14
 (1789025985.464400)  can0  701   [1]  05
 (1789025985.503926)  can0  181   [8]  00 00 EC 01 21 14 21 14
 (1789025985.553875)  can0  181   [8]  00 00 94 01 21 14 21 14
 (1789025985.603823)  can0  181   [8]  00 00 3A 01 21 14 21 14
 (1789025985.653775)  can0  181   [8]  00 00 E6 00 21 14 21 14
 (1789025985.703724)  can0  181   [8]  00 00 A9 00 21 14 21 14
 (1789025985.713955)  can0  701   [1]  05
 (1789025985.753669)  can0  181   [8]  00 00 48 01 21 14 21 14
 (1789025985.803614)  can0  181   [8]  00 00 59 02 21 14 21 14
 (1789025985.853566)  can0  181   [8]  00 00 2E 03 21 14 21 14
 (1789025985.903514)  can0  181   [8]  00 00 5F 03 21 14 21 14
 (1789025985.953459)  can0  181   [8]  00 00 08 03 21 14 21 14
 (1789025985.963445)  can0  701   [1]  05
 (1789025986.003407)  can0  181   [8]  00 00 A4 02 21 14 21 14
 (1789025986.035509)  can0  601   [8]  40 41 60 00 00 00 00 00
 (1789025986.035830)  can0  581   [8]  43 41 60 00 21 14 21 14
 (1789025986.037509)  can0  601   [8]  40 6C 60 01 00 00 00 00
 (1789025986.037836)  can0  581   [8]  43 6C 60 01 00 00 00 00
 (1789025986.039507)  can0  601   [8]  40 6C 60 02 00 00 00 00
 (1789025986.039828)  can0  581   [8]  43 6C 60 02 5C 02 00 00
 (1789025986.041509)  can0  601   [8]  40 6C 60 03 00 00 00 00
 (1789025986.041823)  can0  581   [8]  43 6C 60 03 00 00 58 02
 (1789025986.053355)  can0  181   [8]  00 00 43 02 21 14 21 14
 (1789025986.103301)  can0  181   [8]  00 00 E2 01 21 14 21 14
 (1789025986.153253)  can0  181   [8]  00 00 83 01 21 14 21 14
 (1789025986.203200)  can0  181   [8]  00 00 27 01 21 14 21 14
 (1789025986.212999)  can0  701   [1]  05
 (1789025986.253152)  can0  181   [8]  00 00 E4 00 21 14 21 14
 (1789025986.303163)  can0  181   [8]  00 00 16 01 21 14 21 14
 (1789025986.353106)  can0  181   [8]  00 00 B2 01 21 14 21 14
 (1789025986.403059)  can0  181   [8]  00 00 78 02 21 14 21 14
 (1789025986.453005)  can0  181   [8]  00 00 1F 03 21 14 21 14
 (1789025986.462491)  can0  701   [1]  05
 (1789025986.502952)  can0  181   [8]  00 00 F8 02 21 14 21 14
 (1789025986.552899)  can0  181   [8]  00 00 9E 02 21 14 21 14
 (1789025986.602847)  can0  181   [8]  00 00 44 02 21 14 21 14
 (1789025986.652794)  can0  181   [8]  00 00 EB 01 21 14 21 14
 (1789025986.702745)  can0  181   [8]  00 00 92 01 21 14 21 14
 (1789025986.712045)  can0  701   [1]  05
 (1789025986.752692)  can0  181   [8]  00 00 3A 01 21 14 21 14
 (1789025986.802641)  can0  181   [8]  00 00 E8 00 21 14 21 14
 (1789025986.852591)  can0  181   [8]  00 00 05 01 21 14 21 14
 (1789025986.902535)  can0  181   [8]  00 00 C7 01 21 14 21 14
 (1789025986.952484)  can0  181   [8]  00 00 E0 02 21 14 21 14
 (1789025986.961533)  can0  701   [1]  05
 (1789025987.002430)  can0  181   [8]  00 00 98 03 21 14 21 14
 (1789025987.040513)  can0  601   [8]  40 41 60 00 00 00 00 00
 (1789025987.040841)  can0  581   [8]  43 41 60 00 21 14 21 14
 (1789025987.042508)  can0  601   [8]  40 6C 60 01 00 00 00 00
 (1789025987.042845)  can0  581   [8]  43 6C 60 01 03 00 00 00
 (1789025987.044511)  can0  601   [8]  40 6C 60 02 00 00 00 00
 (1789025987.044840)  can0  581   [8]  43 6C 60 02 76 03 00 00
 (1789025987.046507)  can0  601   [8]  40 6C 60 03 00 00 00 00
 (1789025987.046833)  can0  581   [8]  43 6C 60 03 02 00 72 03
 (1789025987.052378)  can0  181   [8]  02 00 68 03 21 14 21 14
 (1789025987.102327)  can0  181   [8]  00 00 05 03 21 14 21 14
 (1789025987.152273)  can0  181   [8]  00 00 A2 02 21 14 21 14
 (1789025987.202225)  can0  181   [8]  00 00 3E 02 21 14 21 14
 (1789025987.211087)  can0  701   [1]  05
 (1789025987.252171)  can0  181   [8]  00 00 DE 01 21 14 21 14
 (1789025987.302119)  can0  181   [8]  00 00 80 01 21 14 21 14
 (1789025987.352075)  can0  181   [8]  00 00 26 01 21 14 21 14
 (1789025987.402079)  can0  181   [8]  00 00 37 01 21 14 21 14
 (1789025987.452036)  can0  181   [8]  00 00 F8 01 21 14 21 14
 (1789025987.460580)  can0  701   [1]  05
 (1789025987.502041)  can0  181   [8]  00 00 E6 02 21 14 21 14
 (1789025987.551995)  can0  181   [8]  00 00 1F 03 21 14 21 14
 (1789025987.601994)  can0  181   [8]  00 00 D3 02 21 14 21 14
 (1789025987.651957)  can0  181   [8]  00 00 78 02 21 14 21 14
 (1789025987.701955)  can0  181   [8]  00 00 1E 02 21 14 21 14
 (1789025987.710133)  can0  701   [1]  05
 (1789025987.751909)  can0  181   [8]  00 00 C5 01 21 14 21 14
 (1789025987.801915)  can0  181   [8]  00 00 6C 01 21 14 21 14
 (1789025987.851870)  can0  181   [8]  00 00 15 01 21 14 21 14
 (1789025987.901874)  can0  181   [8]  00 00 F8 00 21 14 21 14
 (1789025987.951826)  can0  181   [8]  00 00 8F 01 21 14 21 14
 (1789025987.959624)  can0  701   [1]  05
 (1789025988.001829)  can0  181   [8]  00 00 97 02 21 14 21 14
 (1789025988.047509)  can0  601   [8]  40 41 60 00 00 00 00 00
 (1789025988.047850)  can0  581   [8]  43 41 60 00 21 14 21 14
 (1789025988.049508)  can0  601   [8]  40 6C 60 01 00 00 00 00
 (1789025988.049797)  can0  581   [8]  43 6C 60 01 00 00 00 00
 (1789025988.051512)  can0  601   [8]  40 6C 60 02 00 00 00 00
 (1789025988.051842)  can0  581   [8]  43 6C 60 02 5C 03 00 00
 (1789025988.052076)  can0  181   [8]  00 00 5B 03 21 14 21 14
 (1789025988.053508)  can0  601   [8]  40 6C 60 03 00 00 00 00
 (1789025988.053842)  can0  581   [8]  43 6C 60 03 00 00 5F 03
 (1789025988.101854)  can0  181   [8]  00 00 49 03 21 14 21 14
 (1789025988.151799)  can0  181   [8]  00 00 EA 02 21 14 21 14
 (1789025988.201808)  can0  181   [8]  00 00 87 02 21 14 21 14
 (1789025988.209177)  can0  701   [1]  05
 (1789025988.251822)  can0  181   [8]  00 00 25 02 21 14 21 14
 (1789025988.301832)  can0  181   [8]  00 00 C1 01 21 14 21 14
 (1789025988.351843)  can0  181   [8]  00 00 60 01 21 14 21 14
 (1789025988.401852)  can0  181   [8]  00 00 0E 01 21 14 21 14
 (1789025988.451864)  can0  181   [8]  00 00 00 01 21 14 21 14
 (1789025988.458671)  can0  701   [1]  05
 (1789025988.501870)  can0  181   [8]  00 00 B2 01 21 14 21 14
 (1789025988.551882)  can0  181   [8]  00 00 AC 02 21 14 21 14
 (1789025988.601895)  can0  181   [8]  00 00 3F 03 21 14 21 14
 (1789025988.651906)  can0  181   [8]  00 00 39 03 21 14 21 14
 (1789025988.701916)  can0  181   [8]  00 00 DF 02 21 14 21 14
 (1789025988.708221)  can0  701   [1]  05
 (1789025988.751925)  can0  181   [8]  00 00 85 02 21 14 21 14
 (1789025988.801938)  can0  181   [8]  00 00 2A 02 21 14 21 14
 (1789025988.851945)  can0  181   [8]  00 00 D0 01 21 14 21 14
 (1789025988.901964)  can0  181   [8]  00 00 78 01 21 14 21 14
 (1789025988.951975)  can0  181   [8]  00 00 1D 01 21 14 21 14
 (1789025988.957713)  can0  701   [1]  05
 (1789025989.001980)  can0  181   [8]  00 00 E3 00 21 14 21 14
 (1789025989.051933)  can0  181   [8]  00 00 3E 01 21 14 21 14
 (1789025989.053509)  can0  601   [8]  40 41 60 00 00 00 00 00
 (1789025989.053856)  can0  581   [8]  43 41 60 00 21 14 21 14
 (1789025989.055508)  can0  601   [8]  40 6C 60 01 00 00 00 00
 (1789025989.055860)  can0  581   [8]  43 6C 60 01 00 00 00 00
 (1789025989.057510)  can0  601   [8]  40 6C 60 02 00 00 00 00
 (1789025989.057851)  can0  581   [8]  43 6C 60 02 52 01 00 00
 (1789025989.059510)  can0  601   [8]  40 6C 60 03 00 00 00 00
 (1789025989.059847)  can0  581   [8]  43 6C 60 03 00 00 59 01
 (1789025989.101937)  can0  181   [8]  00 00 FF 01 21 14 21 14
 (1789025989.151891)  can0  181   [8]  00 00 A1 02 21 14 21 14
 (1789025989.201895)  can0  181   [8]  00 00 AF 02 21 14 21 14
 (1789025989.207261)  can0  701   [1]  05
 (1789025989.251852)  can0  181   [8]  00 00 55 02 21 14 21 14
 (1789025989.301853)  can0  181   [8]  00 00 F7 01 21 14 21 14
 (1789025989.351810)  can0  181   [8]  00 00 97 01 21 14 21 14
 (1789025989.401813)  can0  181   [8]  00 00 39 01 21 14 21 14
 (1789025989.451771)  can0  181   [8]  00 00 DA 00 21 14 21 14
 (1789025989.456757)  can0  701   [1]  05
 (1789025989.501769)  can0  181   [8]  00 00 8B 00 21 14 21 14
 (1789025989.551720)  can0  181   [8]  00 00 9F 00 21 14 21 14
 (1789025989.601669)  can0  181   [8]  00 00 7C 01 21 14 21 14
 (1789025989.651616)  can0  181   [8]  00 00 51 02 21 14 21 14
 (1789025989.701564)  can0  181   [8]  00 00 DC 02 21 14 21 14
 (1789025989.706256)  can0  701   [1]  05
 (1789025989.751512)  can0  181   [8]  00 00 FC 02 21 14 21 14
 (1789025989.801521)  can0  181   [8]  00 00 AF 02 21 14 21 14
 (1789025989.851533)  can0  181   [8]  00 00 50 02 21 14 21 14
 (1789025989.901543)  can0  181   [8]  00 00 F6 01 21 14 21 14
 (1789025989.951550)  can0  181   [8]  00 00 9D 01 21 14 21 14
 (1789025989.955864)  can0  701   [1]  05
 (1789025990.001567)  can0  181   [8]  00 00 45 01 21 14 21 14
 (1789025990.051578)  can0  181   [8]  00 00 EA 00 21 14 21 14
 (1789025990.060507)  can0  601   [8]  40 41 60 00 00 00 00 00
 (1789025990.060807)  can0  581   [8]  43 41 60 00 21 14 21 14
 (1789025990.062510)  can0  601   [8]  40 6C 60 01 00 00 00 00
 (1789025990.062866)  can0  581   [8]  43 6C 60 01 00 00 00 00
 (1789025990.064509)  can0  601   [8]  40 6C 60 02 00 00 00 00
 (1789025990.064862)  can0  581   [8]  43 6C 60 02 E4 00 00 00
 (1789025990.066507)  can0  601   [8]  40 6C 60 03 00 00 00 00
 (1789025990.066799)  can0  581   [8]  43 6C 60 03 00 00 E4 00
 (1789025990.101583)  can0  181   [8]  00 00 11 01 21 14 21 14
 (1789025990.151597)  can0  181   [8]  00 00 AB 01 21 14 21 14
 (1789025990.201607)  can0  181   [8]  00 00 72 02 21 14 21 14
 (1789025990.205355)  can0  701   [1]  05
 (1789025990.251615)  can0  181   [8]  00 00 E0 02 21 14 21 14
 (1789025990.301624)  can0  181   [8]  00 00 AD 02 21 14 21 14
 (1789025990.351631)  can0  181   [8]  FC FF 4F 02 21 14 21 14
 (1789025990.401647)  can0  181   [8]  00 00 F4 01 21 14 21 14
 (1789025990.451658)  can0  181   [8]  00 00 98 01 21 14 21 14
 (1789025990.454910)  can0  701   [1]  05
 (1789025990.501670)  can0  181   [8]  00 00 3B 01 21 14 21 14
 (1789025990.551679)  can0  181   [8]  00 00 E1 00 21 14 21 14
 (1789025990.601689)  can0  181   [8]  00 00 03 01 21 14 21 14
 (1789025990.651698)  can0  181   [8]  00 00 A4 01 21 14 21 14
 (1789025990.701711)  can0  181   [8]  00 00 53 02 21 14 21 14
 (1789025990.704403)  can0  701   [1]  05
 (1789025990.751717)  can0  181   [8]  00 00 8D 02 21 14 21 14
 (1789025990.801733)  can0  181   [8]  00 00 57 02 21 14 21 14
 (1789025990.851739)  can0  181   [8]  00 00 FB 01 21 14 21 14
 (1789025990.901750)  can0  181   [8]  00 00 9C 01 21 14 21 14
 (1789025990.951764)  can0  181   [8]  00 00 3E 01 21 14 21 14
 (1789025990.953953)  can0  701   [1]  05
 (1789025991.001772)  can0  181   [8]  00 00 DC 00 21 14 21 14
 (1789025991.051783)  can0  181   [8]  00 00 8C 00 21 14 21 14
 (1789025991.066509)  can0  601   [8]  40 41 60 00 00 00 00 00
 (1789025991.066810)  can0  581   [8]  43 41 60 00 21 14 21 14
 (1789025991.068509)  can0  601   [8]  40 6C 60 01 00 00 00 00
 (1789025991.068817)  can0  581   [8]  43 6C 60 01 00 00 00 00
 (1789025991.070509)  can0  601   [8]  40 6C 60 02 00 00 00 00
 (1789025991.070815)  can0  581   [8]  43 6C 60 02 6C 00 00 00
 (1789025991.072509)  can0  601   [8]  40 6C 60 03 00 00 00 00
 (1789025991.072863)  can0  581   [8]  43 6C 60 03 00 00 69 00
 (1789025991.101798)  can0  181   [8]  00 00 5F 00 21 14 21 14
 (1789025991.151809)  can0  181   [8]  00 00 A7 00 21 14 21 14
 (1789025991.201816)  can0  181   [8]  00 00 6A 01 21 14 21 14
 (1789025991.203444)  can0  701   [1]  05
 (1789025991.251824)  can0  181   [8]  00 00 E6 01 21 14 21 14
 (1789025991.301839)  can0  181   [8]  00 00 4A 02 21 14 21 14
 (1789025991.351845)  can0  181   [8]  00 00 8E 02 21 14 21 14
 (1789025991.401859)  can0  181   [8]  00 00 42 02 21 14 21 14
 (1789025991.451867)  can0  181   [8]  00 00 E9 01 21 14 21 14
 (1789025991.453004)  can0  701   [1]  05
 (1789025991.501874)  can0  181   [8]  00 00 8F 01 21 14 21 14
 (1789025991.551890)  can0  181   [8]  00 00 3B 01 21 14 21 14
 (1789025991.601898)  can0  181   [8]  00 00 E1 00 21 14 21 14
 (1789025991.651911)  can0  181   [8]  00 00 93 00 21 14 21 14
 (1789025991.701920)  can0  181   [8]  00 00 71 00 21 14 21 14
 (1789025991.702551)  can0  701   [1]  05
 (1789025991.751928)  can0  181   [8]  00 00 E1 00 21 14 21 14
 (1789025991.801936)  can0  181   [8]  00 00 8F 01 21 14 21 14
 (1789025991.851951)  can0  181   [8]  00 00 31 02 21 14 21 14
 (1789025991.901962)  can0  181   [8]  00 00 BA 02 21 14 21 14
 (1789025991.951972)  can0  181   [8]  00 00 F1 02 21 14 21 14
 (1789025991.952104)  can0  701   [1]  05
 (1789025992.001984)  can0  181   [8]  00 00 B0 02 21 14 21 14
 (1789025992.051995)  can0  181   [8]  00 00 4F 02 21 14 21 14
 (1789025992.073511)  can0  601   [8]  40 41 60 00 00 00 00 00
 (1789025992.073818)  can0  581   [8]  43 41 60 00 21 14 21 14
 (1789025992.075507)  can0  601   [8]  40 6C 60 01 00 00 00 00
 (1789025992.075819)  can0  581   [8]  43 6C 60 01 00 00 00 00
 (1789025992.077509)  can0  601   [8]  40 6C 60 02 00 00 00 00
 (1789025992.077814)  can0  581   [8]  43 6C 60 02 1C 02 00 00
 (1789025992.079506)  can0  601   [8]  40 6C 60 03 00 00 00 00
 (1789025992.079809)  can0  581   [8]  43 6C 60 03 00 00 18 02
 (1789025992.102001)  can0  181   [8]  00 00 EE 01 21 14 21 14
 (1789025992.152011)  can0  181   [8]  00 00 8C 01 21 14 21 14
 (1789025992.201659)  can0  701   [1]  05
 (1789025992.202022)  can0  181   [8]  00 00 31 01 21 14 21 14
 (1789025992.252035)  can0  181   [8]  00 00 D2 00 21 14 21 14
 (1789025992.302048)  can0  181   [8]  00 00 9F 00 21 14 21 14
 (1789025992.352055)  can0  181   [8]  00 00 CC 00 21 14 21 14
 (1789025992.402066)  can0  181   [8]  00 00 8E 01 21 14 21 14
 (1789025992.451211)  can0  701   [1]  05
 (1789025992.452076)  can0  181   [8]  00 00 21 02 21 14 21 14
 (1789025992.502088)  can0  181   [8]  00 00 5B 02 21 14 21 14
 (1789025992.552099)  can0  181   [8]  00 00 0A 02 21 14 21 14
 (1789025992.602104)  can0  181   [8]  00 00 AC 01 21 14 21 14
 (1789025992.652126)  can0  181   [8]  00 00 50 01 21 14 21 14
 (1789025992.700765)  can0  701   [1]  05
 (1789025992.702134)  can0  181   [8]  00 00 F3 00 21 14 21 14
 (1789025992.752141)  can0  181   [8]  00 00 A7 00 21 14 21 14
 (1789025992.802153)  can0  181   [8]  00 00 75 00 21 14 21 14
 (1789025992.852163)  can0  181   [8]  00 00 BE 00 21 14 21 14
 (1789025992.902172)  can0  181   [8]  00 00 A3 01 21 14 21 14
 (1789025992.950326)  can0  701   [1]  05
 (1789025992.952184)  can0  181   [8]  00 00 67 02 21 14 21 14
 (1789025993.002191)  can0  181   [8]  00 00 CD 02 21 14 21 14
 (1789025993.052200)  can0  181   [8]  00 00 A3 02 21 14 21 14
 (1789025993.079510)  can0  601   [8]  40 41 60 00 00 00 00 00
 (1789025993.079823)  can0  581   [8]  43 41 60 00 21 14 21 14
 (1789025993.081507)  can0  601   [8]  40 6C 60 01 00 00 00 00
 (1789025993.081827)  can0  581   [8]  43 6C 60 01 00 00 00 00
 (1789025993.083509)  can0  601   [8]  40 6C 60 02 00 00 00 00
 (1789025993.083821)  can0  581   [8]  43 6C 60 02 6B 02 00 00
 (1789025993.085510)  can0  601   [8]  40 6C 60 03 00 00 00 00
 (1789025993.085814)  can0  581   [8]  43 6C 60 03 00 00 67 02
 (1789025993.102212)  can0  181   [8]  00 00 49 02 21 14 21 14
 (1789025993.152224)  can0  181   [8]  00 00 EF 01 21 14 21 14
 (1789025993.199810)  can0  701   [1]  05
 (1789025993.202233)  can0  181   [8]  00 00 95 01 21 14 21 14
 (1789025993.252245)  can0  181   [8]  00 00 3F 01 21 14 21 14
 (1789025993.302253)  can0  181   [8]  00 00 E5 00 21 14 21 14
 (1789025993.352265)  can0  181   [8]  00 00 A2 00 21 14 21 14
 (1789025993.402275)  can0  181   [8]  00 00 A8 00 21 14 21 14
 (1789025993.449366)  can0  701   [1]  05
 (1789025993.452286)  can0  181   [8]  00 00 4C 01 21 14 21 14
 (1789025993.502300)  can0  181   [8]  00 00 03 02 21 14 21 14
 (1789025993.552304)  can0  181   [8]  00 00 9C 02 21 14 21 14
 (1789025993.602317)  can0  181   [8]  00 00 FA 02 21 14 21 14
 (1789025993.652325)  can0  181   [8]  00 00 C2 02 21 14 21 14
 (1789025993.698855)  can0  701   [1]  05
 (1789025993.702340)  can0  181   [8]  00 00 5F 02 21 14 21 14
 (1789025993.752351)  can0  181   [8]  00 00 FC 01 21 14 21 14
 (1789025993.802355)  can0  181   [8]  00 00 9D 01 21 14 21 14
 (1789025993.852375)  can0  181   [8]  00 00 3D 01 21 14 21 14
 (1789025993.902381)  can0  181   [8]  00 00 E7 00 21 14 21 14
 (1789025993.948409)  can0  701   [1]  05
 (1789025993.952390)  can0  181   [8]  00 00 BD 00 21 14 21 14
 (1789025994.002402)  can0  181   [8]  00 00 28 01 21 14 21 14
 (1789025994.052410)  can0  181   [8]  00 00 06 02 21 14 21 14
 (1789025994.081510)  can0  601   [8]  40 41 60 00 00 00 00 00
 (1789025994.081842)  can0  581   [8]  43 41 60 00 21 14 21 14
 (1789025994.083508)  can0  601   [8]  40 6C 60 01 00 00 00 00
 (1789025994.083845)  can0  581   [8]  43 6C 60 01 00 00 00 00
 (1789025994.085508)  can0  601   [8]  40 6C 60 02 00 00 00 00
 (1789025994.085835)  can0  581   [8]  43 6C 60 02 99 02 00 00
 (1789025994.087507)  can0  601   [8]  40 6C 60 03 00 00 00 00
 (1789025994.087831)  can0  581   [8]  43 6C 60 03 00 00 A1 02
 (1789025994.102418)  can0  181   [8]  00 00 D6 02 21 14 21 14
 (1789025994.152432)  can0  181   [8]  00 00 2C 03 21 14 21 14
 (1789025994.197962)  can0  701   [1]  05
 (1789025994.202440)  can0  181   [8]  00 00 E5 02 21 14 21 14
 (1789025994.252452)  can0  181   [8]  00 00 89 02 21 14 21 14
 (1789025994.302466)  can0  181   [8]  00 00 2F 02 21 14 21 14
 (1789025994.352471)  can0  181   [8]  00 00 D4 01 21 14 21 14
 (1789025994.402487)  can0  181   [8]  00 00 7A 01 21 14 21 14
 (1789025994.447454)  can0  701   [1]  05
 (1789025994.452494)  can0  181   [8]  00 00 1B 01 21 14 21 14
 (1789025994.502504)  can0  181   [8]  00 00 CB 00 21 14 21 14
 (1789025994.552517)  can0  181   [8]  00 00 39 01 21 14 21 14
 (1789025994.602529)  can0  181   [8]  00 00 7C 02 21 14 21 14
 (1789025994.652538)  can0  181   [8]  00 00 10 03 21 14 21 14
 (1789025994.697006)  can0  701   [1]  05
 (1789025994.702544)  can0  181   [8]  00 00 EA 02 21 14 21 14
 (1789025994.752556)  can0  181   [8]  00 00 8E 02 21 14 21 14
 (1789025994.802571)  can0  181   [8]  00 00 2B 02 21 14 21 14
 (1789025994.852575)  can0  181   [8]  00 00 CD 01 21 14 21 14
 (1789025994.902591)  can0  181   [8]  00 00 6D 01 21 14 21 14
 (1789025994.946498)  can0  701   [1]  05
 (1789025994.952600)  can0  181   [8]  00 00 10 01 21 14 21 14
 (1789025995.002611)  can0  181   [8]  00 00 D1 00 21 14 21 14
 (1789025995.052622)  can0  181   [8]  00 00 5A 01 21 14 21 14
 (1789025995.088508)  can0  601   [8]  40 41 60 00 00 00 00 00
 (1789025995.088849)  can0  581   [8]  43 41 60 00 21 14 21 14
 (1789025995.090505)  can0  601   [8]  40 6C 60 01 00 00 00 00
 (1789025995.090851)  can0  581   [8]  43 6C 60 01 00 00 00 00
 (1789025995.092507)  can0  601   [8]  40 6C 60 02 00 00 00 00
 (1789025995.092843)  can0  581   [8]  43 6C 60 02 3E 02 00 00
 (1789025995.094508)  can0  601   [8]  40 6C 60 03 00 00 00 00
 (1789025995.094837)  can0  581   [8]  43 6C 60 03 00 00 4A 02
 (1789025995.102630)  can0  181   [8]  00 00 77 02 21 14 21 14
 (1789025995.152641)  can0  181   [8]  00 00 5B 03 21 14 21 14
 (1789025995.196051)  can0  701   [1]  05
 (1789025995.202649)  can0  181   [8]  04 00 69 03 21 14 21 14
 (1789025995.252662)  can0  181   [8]  00 00 0F 03 21 14 21 14
 (1789025995.302676)  can0  181   [8]  00 00 B0 02 21 14 21 14
 (1789025995.352683)  can0  181   [8]  00 00 58 02 21 14 21 14
 (1789025995.402694)  can0  181   [8]  00 00 FC 01 21 14 21 14
 (1789025995.445541)  can0  701   [1]  05
 (1789025995.452705)  can0  181   [8]  00 00 A3 01 21 14 21 14
 (1789025995.502714)  can0  181   [8]  00 00 4C 01 21 14 21 14
 (1789025995.552725)  can0  181   [8]  00 00 F7 00 21 14 21 14
 (1789025995.602736)  can0  181   [8]  00 00 B3 00 21 14 21 14
 (1789025995.652745)  can0  181   [8]  00 00 94 00 21 14 21 14
 (1789025995.695095)  can0  701   [1]  05
 (1789025995.702758)  can0  181   [8]  00 00 52 00 21 14 21 14
 (1789025995.752767)  can0  181   [8]  00 00 D3 FF 21 14 21 14
 (1789025995.802776)  can0  181   [8]  00 00 93 FF 21 14 21 14
 (1789025995.852790)  can0  181   [8]  00 00 35 FF 21 14 21 14
 (1789025995.902797)  can0  181   [8]  00 00 BB FE 21 14 21 14
 (1789025995.944588)  can0  701   [1]  05
 (1789025995.952809)  can0  181   [8]  00 00 3D FE 21 14 21 14
 (1789025996.002818)  can0  181   [8]  00 00 AA FD 21 14 21 14
 (1789025996.052830)  can0  181   [8]  00 00 21 FD 21 14 21 14
 (1789025996.092513)  can0  601   [8]  40 41 60 00 00 00 00 00
 (1789025996.092859)  can0  581   [8]  43 41 60 00 21 14 21 14
 (1789025996.094507)  can0  601   [8]  40 6C 60 01 00 00 00 00
 (1789025996.094864)  can0  581   [8]  43 6C 60 01 00 00 00 00
 (1789025996.096509)  can0  601   [8]  40 6C 60 02 00 00 00 00
 (1789025996.096857)  can0  581   [8]  43 6C 60 02 C1 FC FF FF
 (1789025996.098509)  can0  601   [8]  40 6C 60 03 00 00 00 00
 (1789025996.098855)  can0  581   [8]  43 6C 60 03 00 00 BD FC
 (1789025996.102839)  can0  181   [8]  00 00 B6 FC 21 14 21 14
 (1789025996.152849)  can0  181   [8]  00 00 89 FC 21 14 21 14
 (1789025996.194140)  can0  701   [1]  05
 (1789025996.202862)  can0  181   [8]  00 00 D8 FC 21 14 21 14
 (1789025996.252872)  can0  181   [8]  00 00 37 FD 21 14 21 14
 (1789025996.302884)  can0  181   [8]  00 00 94 FD 21 14 21 14
 (1789025996.352894)  can0  181   [8]  00 00 F0 FD 21 14 21 14
 (1789025996.402904)  can0  181   [8]  00 00 4B FE 21 14 21 14
 (1789025996.443630)  can0  701   [1]  05
 (1789025996.452917)  can0  181   [8]  00 00 BC FE 21 14 21 14
 (1789025996.502924)  can0  181   [8]  00 00 0A FF 21 14 21 14
 (1789025996.552880)  can0  181   [8]  00 00 64 FE 21 14 21 14
 (1789025996.602880)  can0  181   [8]  00 00 E7 FC 21 14 21 14
 (1789025996.652838)  can0  181   [8]  00 00 12 FC 21 14 21 14
 (1789025996.693188)  can0  701   [1]  05
 (1789025996.702839)  can0  181   [8]  00 00 FE FB 21 14 21 14
 (1789025996.752793)  can0  181   [8]  00 00 5C FC 21 14 21 14
 (1789025996.802794)  can0  181   [8]  03 00 C3 FC 21 14 21 14
 (1789025996.852757)  can0  181   [8]  00 00 25 FD 21 14 21 14
 (1789025996.902754)  can0  181   [8]  00 00 89 FD 21 14 21 14
 (1789025996.942675)  can0  701   [1]  05
 (1789025996.952715)  can0  181   [8]  00 00 E9 FD 21 14 21 14
 (1789025997.002720)  can0  181   [8]  00 00 49 FE 21 14 21 14
 (1789025997.052666)  can0  181   [8]  00 00 BC FE 21 14 21 14
 (1789025997.095513)  can0  601   [8]  40 41 60 00 00 00 00 00
 (1789025997.095813)  can0  581   [8]  43 41 60 00 21 14 21 14
 (1789025997.097510)  can0  601   [8]  40 6C 60 01 00 00 00 00
 (1789025997.097815)  can0  581   [8]  43 6C 60 01 00 00 00 00
 (1789025997.099512)  can0  601   [8]  40 6C 60 02 00 00 00 00
 (1789025997.099817)  can0  581   [8]  43 6C 60 02 06 FF FF FF
 (1789025997.101510)  can0  601   [8]  40 6C 60 03 00 00 00 00
 (1789025997.101817)  can0  581   [8]  43 6C 60 03 00 00 03 FF
 (1789025997.102677)  can0  181   [8]  00 00 02 FF 21 14 21 14
 (1789025997.152680)  can0  181   [8]  00 00 E2 FD 21 14 21 14
 (1789025997.192228)  can0  701   [1]  05
 (1789025997.202633)  can0  181   [8]  00 00 47 FC 21 14 21 14
 (1789025997.252585)  can0  181   [8]  00 00 12 FC 21 14 21 14
 (1789025997.302594)  can0  181   [8]  00 00 6A FC 21 14 21 14
 (1789025997.352599)  can0  181   [8]  00 00 C4 FC 21 14 21 14
 (1789025997.402614)  can0  181   [8]  00 00 23 FD 21 14 21 14
 (1789025997.441781)  can0  701   [1]  05
 (1789025997.452627)  can0  181   [8]  00 00 7E FD 21 14 21 14
 (1789025997.502634)  can0  181   [8]  00 00 D9 FD 21 14 21 14
 (1789025997.552643)  can0  181   [8]  00 00 33 FE 21 14 21 14
 (1789025997.602652)  can0  181   [8]  00 00 99 FE 21 14 21 14
 (1789025997.652666)  can0  181   [8]  00 00 08 FF 21 14 21 14
 (1789025997.691334)  can0  701   [1]  05
 (1789025997.702674)  can0  181   [8]  00 00 6E FE 21 14 21 14
 (1789025997.752686)  can0  181   [8]  00 00 95 FC 21 14 21 14
 (1789025997.802696)  can0  181   [8]  00 00 1C FC 21 14 21 14
 (1789025997.852709)  can0  181   [8]  00 00 70 FC 21 14 21 14
 (1789025997.902715)  can0  181   [8]  00 00 D3 FC 21 14 21 14
 (1789025997.940887)  can0  701   [1]  05
 (1789025997.952732)  can0  181   [8]  00 00 39 FD 21 14 21 14
 (1789025998.002746)  can0  181   [8]  00 00 98 FD 21 14 21 14
 (1789025998.052748)  can0  181   [8]  00 00 F7 FD 21 14 21 14
 (1789025998.101512)  can0  601   [8]  40 41 60 00 00 00 00 00
 (1789025998.101821)  can0  581   [8]  43 41 60 00 21 14 21 14
 (1789025998.102706)  can0  181   [8]  00 00 55 FE 21 14 21 14
 (1789025998.103078)  can0  601   [8]  40 6C 60 01 00 00 00 00
 (1789025998.103388)  can0  581   [8]  43 6C 60 01 00 00 00 00
 (1789025998.104512)  can0  601   [8]  40 6C 60 02 00 00 00 00
 (1789025998.104820)  can0  581   [8]  43 6C 60 02 58 FE FF FF
 (1789025998.106510)  can0  601   [8]  40 6C 60 03 00 00 00 00
 (1789025998.106756)  can0  581   [8]  43 6C 60 03 00 00 5C FE
 (1789025998.152710)  can0  181   [8]  00 00 AF FE 21 14 21 14
 (1789025998.190371)  can0  701   [1]  05
 (1789025998.202667)  can0  181   [8]  00 00 14 FF 21 14 21 14
 (1789025998.252664)  can0  181   [8]  00 00 16 FF 21 14 21 14
 (1789025998.302621)  can0  181   [8]  00 00 FD FD 21 14 21 14
 (1789025998.352623)  can0  181   [8]  00 00 F0 FC 21 14 21 14
 (1789025998.402578)  can0  181   [8]  00 00 97 FC 21 14 21 14
 (1789025998.439933)  can0  701   [1]  05
 (1789025998.452585)  can0  181   [8]  00 00 E0 FC 21 14 21 14
 (1789025998.502543)  can0  181   [8]  00 00 3E FD 21 14 21 14
 (1789025998.552541)  can0  181   [8]  00 00 98 FD 21 14 21 14
 (1789025998.602489)  can0  181   [8]  00 00 F8 FD 21 14 21 14
 (1789025998.652440)  can0  181   [8]  00 00 55 FE 21 14 21 14
 (1789025998.689424)  can0  701   [1]  05
 (1789025998.702385)  can0  181   [8]  00 00 B2 FE 21 14 21 14
 (1789025998.752396)  can0  181   [8]  00 00 11 FF 21 14 21 14
 (1789025998.802408)  can0  181   [8]  00 00 51 FF 21 14 21 14
 (1789025998.852415)  can0  181   [8]  00 00 93 FE 21 14 21 14
 (1789025998.902430)  can0  181   [8]  00 00 60 FD 21 14 21 14
 (1789025998.938984)  can0  701   [1]  05
 (1789025998.952438)  can0  181   [8]  00 00 B5 FC 21 14 21 14
 (1789025999.002449)  can0  181   [8]  00 00 CF FC 21 14 21 14
 (1789025999.052461)  can0  181   [8]  00 00 2F FD 21 14 21 14
 (1789025999.102471)  can0  181   [8]  00 00 91 FD 21 14 21 14
 (1789025999.106512)  can0  601   [8]  40 41 60 00 00 00 00 00
 (1789025999.106834)  can0  581   [8]  43 41 60 00 21 14 21 14
 (1789025999.108508)  can0  601   [8]  40 6C 60 01 00 00 00 00
 (1789025999.108836)  can0  581   [8]  43 6C 60 01 00 00 00 00
 (1789025999.110508)  can0  601   [8]  40 6C 60 02 00 00 00 00
 (1789025999.110827)  can0  581   [8]  43 6C 60 02 A1 FD FF FF
 (1789025999.112508)  can0  601   [8]  40 6C 60 03 00 00 00 00
 (1789025999.112821)  can0  581   [8]  43 6C 60 03 00 00 A5 FD
 (1789025999.152483)  can0  181   [8]  00 00 EF FD 21 14 21 14
 (1789025999.188593)  can0  701   [1]  05
 (1789025999.202489)  can0  181   [8]  00 00 4C FE 21 14 21 14
 (1789025999.252503)  can0  181   [8]  00 00 A5 FE 21 14 21 14
 (1789025999.302511)  can0  181   [8]  00 00 0E FF 21 14 21 14
 (1789025999.352522)  can0  181   [8]  00 00 58 FF 21 14 21 14
 (1789025999.402532)  can0  181   [8]  00 00 9E FE 21 14 21 14
 (1789025999.438147)  can0  701   [1]  05
 (1789025999.452546)  can0  181   [8]  00 00 45 FD 21 14 21 14
 (1789025999.502551)  can0  181   [8]  00 00 80 FC 21 14 21 14
 (1789025999.552508)  can0  181   [8]  00 00 4F FC 21 14 21 14
 (1789025999.602451)  can0  181   [8]  00 00 A2 FC 21 14 21 14
 (1789025999.652463)  can0  181   [8]  00 00 02 FD 21 14 21 14
 (1789025999.687644)  can0  701   [1]  05
 (1789025999.702469)  can0  181   [8]  00 00 62 FD 21 14 21 14
 (1789025999.752482)  can0  181   [8]  00 00 C1 FD 21 14 21 14
 (1789025999.802493)  can0  181   [8]  00 00 21 FE 21 14 21 14
 (1789025999.852501)  can0  181   [8]  00 00 84 FE 21 14 21 14
 (1789025999.902513)  can0  181   [8]  00 00 EA FE 21 14 21 14
 (1789025999.937192)  can0  701   [1]  05
 (1789025999.952523)  can0  181   [8]  00 00 73 FE 21 14 21 14
 (1789026000.002532)  can0  181   [8]  00 00 02 FD 21 14 21 14
 (1789026000.052486)  can0  181   [8]  00 00 55 FC 21 14 21 14
 (1789026000.102431)  can0  181   [8]  00 00 80 FC 21 14 21 14
 (1789026000.112511)  can0  601   [8]  40 41 60 00 00 00 00 00
 (1789026000.112841)  can0  581   [8]  43 41 60 00 21 14 21 14
 (1789026000.114507)  can0  601   [8]  40 6C 60 01 00 00 00 00
 (1789026000.114845)  can0  581   [8]  43 6C 60 01 00 00 00 00
 (1789026000.116510)  can0  601   [8]  40 6C 60 02 00 00 00 00
 (1789026000.116782)  can0  581   [8]  43 6C 60 02 9C FC FF FF
 (1789026000.118507)  can0  601   [8]  40 6C 60 03 00 00 00 00
 (1789026000.118835)  can0  581   [8]  43 6C 60 03 00 00 9F FC
 (1789026000.152440)  can0  181   [8]  00 00 DE FC 21 14 21 14
 (1789026000.186689)  can0  701   [1]  05
 (1789026000.202451)  can0  181   [8]  00 00 41 FD 21 14 21 14
 (1789026000.252460)  can0  181   [8]  00 00 9C FD 21 14 21 14
 (1789026000.302472)  can0  181   [8]  00 00 FA FD 21 14 21 14
 (1789026000.352482)  can0  181   [8]  00 00 54 FE 21 14 21 14
 (1789026000.402492)  can0  181   [8]  00 00 BF FE 21 14 21 14
 (1789026000.436236)  can0  701   [1]  05
 (1789026000.452500)  can0  181   [8]  00 00 EE FE 21 14 21 14
 (1789026000.502510)  can0  181   [8]  00 00 C5 FD 21 14 21 14
 (1789026000.552524)  can0  181   [8]  00 00 72 FC 21 14 21 14
 (1789026000.602537)  can0  181   [8]  03 00 0F FC 21 14 21 14
 (1789026000.652543)  can0  181   [8]  00 00 63 FC 21 14 21 14
 (1789026000.685790)  can0  701   [1]  05
 (1789026000.702552)  can0  181   [8]  00 00 C4 FC 21 14 21 14
 (1789026000.752567)  can0  181   [8]  00 00 29 FD 21 14 21 14
 (1789026000.802574)  can0  181   [8]  00 00 8A FD 21 14 21 14
 (1789026000.852583)  can0  181   [8]  00 00 EC FD 21 14 21 14
 (1789026000.902598)  can0  181   [8]  00 00 57 FE 21 14 21 14
 (1789026000.935345)  can0  701   [1]  05
 (1789026000.952606)  can0  181   [8]  00 00 D1 FE 21 14 21 14
 (1789026001.002619)  can0  181   [8]  00 00 5C FE 21 14 21 14
 (1789026001.052627)  can0  181   [8]  00 00 CB FC 21 14 21 14
 (1789026001.102636)  can0  181   [8]  00 00 F4 FB 21 14 21 14
 (1789026001.118510)  can0  601   [8]  40 41 60 00 00 00 00 00
 (1789026001.118850)  can0  581   [8]  43 41 60 00 21 14 21 14
 (1789026001.120511)  can0  601   [8]  40 6C 60 01 00 00 00 00
 (1789026001.120852)  can0  581   [8]  43 6C 60 01 00 00 00 00
 (1789026001.122510)  can0  601   [8]  40 6C 60 02 00 00 00 00
 (1789026001.122843)  can0  581   [8]  43 6C 60 02 F4 FB FF FF
 (1789026001.124507)  can0  601   [8]  40 6C 60 03 00 00 00 00
 (1789026001.124842)  can0  581   [8]  43 6C 60 03 00 00 F6 FB
 (1789026001.152651)  can0  181   [8]  00 00 22 FC 21 14 21 14
 (1789026001.184834)  can0  701   [1]  05
 (1789026001.202660)  can0  181   [8]  00 00 81 FC 21 14 21 14
 (1789026001.252668)  can0  181   [8]  00 00 E1 FC 21 14 21 14
 (1789026001.302680)  can0  181   [8]  00 00 3A FD 21 14 21 14
 (1789026001.352689)  can0  181   [8]  00 00 97 FD 21 14 21 14
 (1789026001.402703)  can0  181   [8]  00 00 F0 FD 21 14 21 14
 (1789026001.434388)  can0  701   [1]  05
 (1789026001.452712)  can0  181   [8]  00 00 4D FE 21 14 21 14
 (1789026001.502722)  can0  181   [8]  00 00 CF FE 21 14 21 14
 (1789026001.552736)  can0  181   [8]  00 00 77 FE 21 14 21 14
 (1789026001.602742)  can0  181   [8]  00 00 59 FD 21 14 21 14
 (1789026001.652752)  can0  181   [8]  00 00 C3 FC 21 14 21 14
 (1789026001.683877)  can0  701   [1]  05
 (1789026001.702763)  can0  181   [8]  00 00 11 FD 21 14 21 14
 (1789026001.752772)  can0  181   [8]  00 00 72 FD 21 14 21 14
 (1789026001.802783)  can0  181   [8]  00 00 D5 FD 21 14 21 14
 (1789026001.852795)  can0  181   [8]  00 00 33 FE 21 14 21 14
 (1789026001.902803)  can0  181   [8]  00 00 94 FE 21 14 21 14
 (1789026001.933428)  can0  701   [1]  05
 (1789026001.952820)  can0  181   [8]  00 00 00 FF 21 14 21 14
 (1789026002.002827)  can0  181   [8]  00 00 78 FF 21 14 21 14
 (1789026002.052840)  can0  181   [8]  00 00 4D FF 21 14 21 14
 (1789026002.102848)  can0  181   [8]  00 00 00 FE 21 14 21 14
 (1789026002.124489)  can0  601   [8]  40 41 60 00 00 00 00 00
 (1789026002.124793)  can0  581   [8]  43 41 60 00 21 14 21 14
 (1789026002.126482)  can0  601   [8]  40 6C 60 01 00 00 00 00
 (1789026002.126797)  can0  581   [8]  43 6C 60 01 00 00 00 00
 (1789026002.128482)  can0  601   [8]  40 6C 60 02 00 00 00 00
 (1789026002.128790)  can0  581   [8]  43 6C 60 02 5D FD FF FF
 (1789026002.130478)  can0  601   [8]  40 6C 60 03 00 00 00 00
 (1789026002.130786)  can0  581   [8]  43 6C 60 03 00 00 53 FD
 (1789026002.152858)  can0  181   [8]  00 00 F5 FC 21 14 21 14
 (1789026002.182923)  can0  701   [1]  05
 (1789026002.202865)  can0  181   [8]  00 00 CA FC 21 14 21 14
 (1789026002.252878)  can0  181   [8]  00 00 1E FD 21 14 21 14
 (1789026002.302891)  can0  181   [8]  00 00 7C FD 21 14 21 14
 (1789026002.352899)  can0  181   [8]  00 00 D6 FD 21 14 21 14
 (1789026002.402908)  can0  181   [8]  00 00 31 FE 21 14 21 14
 (1789026002.432417)  can0  701   [1]  05
 (1789026002.452923)  can0  181   [8]  00 00 89 FE 21 14 21 14
 (1789026002.502934)  can0  181   [8]  00 00 00 FF 21 14 21 14
 (1789026002.552943)  can0  181   [8]  00 00 2A FF 21 14 21 14
 (1789026002.602949)  can0  181   [8]  00 00 F5 FD 21 14 21 14
 (1789026002.652959)  can0  181   [8]  00 00 E5 FC 21 14 21 14
 (1789026002.682032)  can0  701   [1]  05
 (1789026002.702972)  can0  181   [8]  00 00 A3 FC 21 14 21 14
 (1789026002.752982)  can0  181   [8]  00 00 F5 FC 21 14 21 14
 (1789026002.802995)  can0  181   [8]  00 00 58 FD 21 14 21 14
 (1789026002.853004)  can0  181   [8]  00 00 B9 FD 21 14 21 14
 (1789026002.903016)  can0  181   [8]  00 00 1B FE 21 14 21 14
 (1789026002.931520)  can0  701   [1]  05
 (1789026002.953027)  can0  181   [8]  00 00 7B FE 21 14 21 14
 (1789026003.003034)  can0  181   [8]  00 00 E0 FE 21 14 21 14
 (1789026003.053048)  can0  181   [8]  00 00 3E FF 21 14 21 14
 (1789026003.103056)  can0  181   [8]  00 00 A0 FE 21 14 21 14
 (1789026003.131484)  can0  601   [8]  40 41 60 00 00 00 00 00
 (1789026003.131802)  can0  581   [8]  43 41 60 00 21 14 21 14
 (1789026003.133479)  can0  601   [8]  40 6C 60 01 00 00 00 00
 (1789026003.133804)  can0  581   [8]  43 6C 60 01 00 00 00 00
 (1789026003.135481)  can0  601   [8]  40 6C 60 02 00 00 00 00
 (1789026003.135795)  can0  581   [8]  43 6C 60 02 D0 FD FF FF
 (1789026003.137480)  can0  601   [8]  40 6C 60 03 00 00 00 00
 (1789026003.137791)  can0  581   [8]  43 6C 60 03 00 00 C5 FD
 (1789026003.153066)  can0  181   [8]  00 00 73 FD 21 14 21 14
 (1789026003.181072)  can0  701   [1]  05
 (1789026003.203074)  can0  181   [8]  00 00 DB FC 21 14 21 14
 (1789026003.253091)  can0  181   [8]  00 00 EC FC 21 14 21 14
 (1789026003.303106)  can0  181   [8]  00 00 47 FD 21 14 21 14
 (1789026003.353106)  can0  181   [8]  00 00 A7 FD 21 14 21 14
 (1789026003.403068)  can0  181   [8]  00 00 01 FE 21 14 21 14
 (1789026003.430566)  can0  701   [1]  05
 (1789026003.453066)  can0  181   [8]  00 00 5A FE 21 14 21 14
 (1789026003.503024)  can0  181   [8]  00 00 C7 FE 21 14 21 14
 (1789026003.553028)  can0  181   [8]  00 00 45 FF 21 14 21 14
 (1789026003.602980)  can0  181   [8]  00 00 86 FE 21 14 21 14
 (1789026003.652982)  can0  181   [8]  00 00 E2 FC 21 14 21 14
 (1789026003.680117)  can0  701   [1]  05
 (1789026003.702995)  can0  181   [8]  00 00 63 FC 21 14 21 14
 (1789026003.752942)  can0  181   [8]  00 00 B1 FC 21 14 21 14
 (1789026003.802890)  can0  181   [8]  00 00 0E FD 21 14 21 14
 (1789026003.852840)  can0  181   [8]  00 00 71 FD 21 14 21 14
 (1789026003.902787)  can0  181   [8]  00 00 D0 FD 21 14 21 14
 (1789026003.929674)  can0  701   [1]  05
 (1789026003.952738)  can0  181   [8]  00 00 32 FE 21 14 21 14
 (1789026004.002680)  can0  181   [8]  00 00 92 FE 21 14 21 14
 (1789026004.052635)  can0  181   [8]  00 00 14 FF 21 14 21 14
 (1789026004.102582)  can0  181   [8]  00 00 33 FF 21 14 21 14
 (1789026004.137485)  can0  601   [8]  40 41 60 00 00 00 00 00
 (1789026004.137811)  can0  581   [8]  43 41 60 00 21 14 21 14
 (1789026004.139482)  can0  601   [8]  40 6C 60 01 00 00 00 00
 (1789026004.139812)  can0  581   [8]  43 6C 60 01 00 00 00 00
 (1789026004.141480)  can0  601   [8]  40 6C 60 02 00 00 00 00
 (1789026004.141804)  can0  581   [8]  43 6C 60 02 4E FE FF FF
 (1789026004.143478)  can0  601   [8]  40 6C 60 03 00 00 00 00
 (1789026004.143802)  can0  581   [8]  43 6C 60 03 00 00 3E FE
 (1789026004.152528)  can0  181   [8]  00 00 F1 FD 21 14 21 14
 (1789026004.179162)  can0  701   [1]  05
 (1789026004.202473)  can0  181   [8]  00 00 96 FC 21 14 21 14
 (1789026004.252426)  can0  181   [8]  00 00 1F FC 21 14 21 14
 (1789026004.302372)  can0  181   [8]  00 00 6E FC 21 14 21 14
 (1789026004.352318)  can0  181   [8]  00 00 CE FC 21 14 21 14
 (1789026004.402266)  can0  181   [8]  00 00 2E FD 21 14 21 14
 (1789026004.428716)  can0  701   [1]  05
 (1789026004.452216)  can0  181   [8]  00 00 88 FD 21 14 21 14
 (1789026004.502165)  can0  181   [8]  00 00 E5 FD 21 14 21 14
 (1789026004.552114)  can0  181   [8]  00 00 3B FE 21 14 21 14
 (1789026004.602058)  can0  181   [8]  00 00 A9 FE 21 14 21 14
 (1789026004.652010)  can0  181   [8]  00 00 11 FF 21 14 21 14
 (1789026004.678207)  can0  701   [1]  05
 (1789026004.701957)  can0  181   [8]  00 00 69 FE 21 14 21 14
 (1789026004.751900)  can0  181   [8]  00 00 AC FC 21 14 21 14
 (1789026004.801851)  can0  181   [8]  00 00 11 FC 21 14 21 14
 (1789026004.851803)  can0  181   [8]  00 00 5B FC 21 14 21 14
 (1789026004.901748)  can0  181   [8]  00 00 BC FC 21 14 21 14
 (1789026004.927758)  can0  701   [1]  05
 (1789026004.951761)  can0  181   [8]  00 00 20 FD 21 14 21 14
 (1789026005.001716)  can0  181   [8]  00 00 83 FD 21 14 21 14
 (1789026005.051716)  can0  181   [8]  00 00 E4 FD 21 14 21 14
 (1789026005.101673)  can0  181   [8]  00 00 44 FE 21 14 21 14
 (1789026005.144484)  can0  601   [8]  40 41 60 00 00 00 00 00
 (1789026005.144817)  can0  581   [8]  43 41 60 00 21 14 21 14
 (1789026005.146481)  can0  601   [8]  40 6C 60 01 00 00 00 00
 (1789026005.146819)  can0  581   [8]  43 6C 60 01 00 00 00 00
 (1789026005.148480)  can0  601   [8]  40 6C 60 02 00 00 00 00
 (1789026005.148812)  can0  581   [8]  43 6C 60 02 AF FE FF FF
 (1789026005.150480)  can0  601   [8]  40 6C 60 03 00 00 00 00
 (1789026005.150804)  can0  581   [8]  43 6C 60 03 00 00 B5 FE
 (1789026005.151675)  can0  181   [8]  00 00 B7 FE 21 14 21 14
 (1789026005.177314)  can0  701   [1]  05
 (1789026005.201630)  can0  181   [8]  00 00 D3 FE 21 14 21 14
 (1789026005.251635)  can0  181   [8]  00 00 85 FD 21 14 21 14
 (1789026005.301588)  can0  181   [8]  FE FF 86 FC 21 14 21 14
 (1789026005.351590)  can0  181   [8]  01 00 B4 FC 21 14 21 14
 (1789026005.401550)  can0  181   [8]  00 00 0F FD 21 14 21 14
 (1789026005.426806)  can0  701   [1]  05
 (1789026005.451552)  can0  181   [8]  00 00 69 FD 21 14 21 14
 (1789026005.501508)  can0  181   [8]  00 00 C5 FD 21 14 21 14
 (1789026005.551511)  can0  181   [8]  00 00 1C FE 21 14 21 14
 (1789026005.601462)  can0  181   [8]  00 00 74 FE 21 14 21 14
 (1789026005.651467)  can0  181   [8]  00 00 DC FE 21 14 21 14
 (1789026005.676359)  can0  701   [1]  05
 (1789026005.701475)  can0  181   [8]  00 00 51 FF 21 14 21 14
 (1789026005.751427)  can0  181   [8]  00 00 CF FE 21 14 21 14
 (1789026005.801380)  can0  181   [8]  00 00 39 FD 21 14 21 14
 (1789026005.851387)  can0  181   [8]  00 00 7A FC 21 14 21 14
 (1789026005.901343)  can0  181   [8]  00 00 A6 FC 21 14 21 14
 (1789026005.925851)  can0  701   [1]  05
 (1789026005.951345)  can0  181   [8]  00 00 04 FD 21 14 21 14
 (1789026006.001298)  can0  181   [8]  00 00 68 FD 21 14 21 14
 (1789026006.051303)  can0  181   [8]  00 00 C8 FD 21 14 21 14
 (1789026006.101313)  can0  181   [8]  00 00 2A FE 21 14 21 14
 (1789026006.150430)  can0  601   [8]  40 41 60 00 00 00 00 00
 (1789026006.150825)  can0  581   [8]  43 41 60 00 21 14 21 14
 (1789026006.151260)  can0  181   [8]  00 00 88 FE 21 14 21 14
 (1789026006.151586)  can0  601   [8]  40 6C 60 01 00 00 00 00
 (1789026006.151894)  can0  581   [8]  43 6C 60 01 00 00 00 00
 (1789026006.153481)  can0  601   [8]  40 6C 60 02 00 00 00 00
 (1789026006.153825)  can0  581   [8]  43 6C 60 02 8E FE FF FF
 (1789026006.155479)  can0  601   [8]  40 6C 60 03 00 00 00 00
 (1789026006.155816)  can0  581   [8]  43 6C 60 03 00 00 92 FE
 (1789026006.175403)  can0  701   [1]  05
 (1789026006.201212)  can0  181   [8]  00 00 F8 FE 21 14 21 14
 (1789026006.251221)  can0  181   [8]  00 00 83 FF 21 14 21 14
 (1789026006.301229)  can0  181   [8]  00 00 73 FE 21 14 21 14
 (1789026006.351177)  can0  181   [8]  00 00 8D FC 21 14 21 14
 (1789026006.401127)  can0  181   [8]  FC FF 3C FC 21 14 21 14
 (1789026006.424894)  can0  701   [1]  05
 (1789026006.451134)  can0  181   [8]  01 00 8C FC 21 14 21 14
 (1789026006.501092)  can0  181   [8]  00 00 E7 FC 21 14 21 14
 (1789026006.551101)  can0  181   [8]  00 00 44 FD 21 14 21 14
 (1789026006.601046)  can0  181   [8]  00 00 9D FD 21 14 21 14
 (1789026006.651054)  can0  181   [8]  00 00 FA FD 21 14 21 14
 (1789026006.674442)  can0  701   [1]  05
 (1789026006.701018)  can0  181   [8]  00 00 6C FE 21 14 21 14
 (1789026006.751015)  can0  181   [8]  00 00 FF FE 21 14 21 14
 (1789026006.800972)  can0  181   [8]  00 00 AF FE 21 14 21 14
 (1789026006.850972)  can0  181   [8]  00 00 74 FD 21 14 21 14
 (1789026006.900919)  can0  181   [8]  00 00 DA FC 21 14 21 14
 (1789026006.923938)  can0  701   [1]  05
 (1789026006.950870)  can0  181   [8]  00 00 F9 FC 21 14 21 14
 (1789026007.000817)  can0  181   [8]  00 00 56 FD 21 14 21 14
 (1789026007.050764)  can0  181   [8]  00 00 B8 FD 21 14 21 14
 (1789026007.100714)  can0  181   [8]  00 00 17 FE 21 14 21 14
 (1789026007.150662)  can0  181   [8]  00 00 77 FE 21 14 21 14
 (1789026007.157483)  can0  601   [8]  40 41 60 00 00 00 00 00
 (1789026007.157829)  can0  581   [8]  43 41 60 00 21 14 21 14
 (1789026007.159482)  can0  601   [8]  40 6C 60 01 00 00 00 00
 (1789026007.159833)  can0  581   [8]  43 6C 60 01 00 00 00 00
 (1789026007.161479)  can0  601   [8]  40 6C 60 02 00 00 00 00
 (1789026007.161826)  can0  581   [8]  43 6C 60 02 8E FE FF FF
 (1789026007.163478)  can0  601   [8]  40 6C 60 03 00 00 00 00
 (1789026007.163818)  can0  581   [8]  43 6C 60 03 00 00 92 FE
 (1789026007.173432)  can0  701   [1]  05
 (1789026007.200608)  can0  181   [8]  00 00 D6 FE 21 14 21 14
 (1789026007.250556)  can0  181   [8]  00 00 5C FF 21 14 21 14
 (1789026007.300504)  can0  181   [8]  00 00 D9 FF 21 14 21 14
 (1789026007.350455)  can0  181   [8]  00 00 5F FF 21 14 21 14
 (1789026007.400396)  can0  181   [8]  00 00 B6 FE 21 14 21 14
 (1789026007.422982)  can0  701   [1]  05
 (1789026007.450350)  can0  181   [8]  00 00 64 FE 21 14 21 14
 (1789026007.500297)  can0  181   [8]  00 00 10 FE 21 14 21 14
 (1789026007.550245)  can0  181   [8]  00 00 10 FE 21 14 21 14
 (1789026007.600196)  can0  181   [8]  00 00 6C FE 21 14 21 14
 (1789026007.650140)  can0  181   [8]  00 00 C3 FE 21 14 21 14
 (1789026007.672473)  can0  701   [1]  05
 (1789026007.700094)  can0  181   [8]  00 00 27 FF 21 14 21 14
 (1789026007.750039)  can0  181   [8]  00 00 73 FF 21 14 21 14
 (1789026007.799984)  can0  181   [8]  00 00 DC FF 21 14 21 14
 (1789026007.849936)  can0  181   [8]  00 00 37 FF 21 14 21 14
 (1789026007.899880)  can0  181   [8]  00 00 B6 FD 21 14 21 14
 (1789026007.922027)  can0  701   [1]  05
 (1789026007.949831)  can0  181   [8]  00 00 EC FC 21 14 21 14
 (1789026007.999779)  can0  181   [8]  00 00 F8 FC 21 14 21 14
 (1789026008.049729)  can0  181   [8]  00 00 4F FD 21 14 21 14
 (1789026008.099670)  can0  181   [8]  00 00 AC FD 21 14 21 14
 (1789026008.149623)  can0  181   [8]  00 00 06 FE 21 14 21 14
 (1789026008.164482)  can0  601   [8]  40 41 60 00 00 00 00 00
 (1789026008.164831)  can0  581   [8]  43 41 60 00 21 14 21 14
 (1789026008.166480)  can0  601   [8]  40 6C 60 01 00 00 00 00
 (1789026008.166838)  can0  581   [8]  43 6C 60 01 00 00 00 00
 (1789026008.168479)  can0  601   [8]  40 6C 60 02 00 00 00 00
 (1789026008.168833)  can0  581   [8]  43 6C 60 02 2C FE FF FF
 (1789026008.170481)  can0  601   [8]  40 6C 60 03 00 00 00 00
 (1789026008.170827)  can0  581   [8]  43 6C 60 03 00 00 2F FE
 (1789026008.171519)  can0  701   [1]  05
 (1789026008.199571)  can0  181   [8]  00 00 63 FE 21 14 21 14
 (1789026008.249515)  can0  181   [8]  00 00 BB FE 21 14 21 14
 (1789026008.299469)  can0  181   [8]  00 00 1F FF 21 14 21 14
 (1789026008.349411)  can0  181   [8]  00 00 86 FF 21 14 21 14
 (1789026008.399365)  can0  181   [8]  00 00 D3 FF 21 14 21 14
 (1789026008.421072)  can0  701   [1]  05
 (1789026008.449311)  can0  181   [8]  00 00 CF FE 21 14 21 14
 (1789026008.499261)  can0  181   [8]  00 00 7F FD 21 14 21 14
 (1789026008.549204)  can0  181   [8]  02 00 CD FC 21 14 21 14
 (1789026008.599154)  can0  181   [8]  00 00 B2 FC 21 14 21 14
 (1789026008.649104)  can0  181   [8]  00 00 10 FD 21 14 21 14
 (1789026008.670562)  can0  701   [1]  05
 (1789026008.699051)  can0  181   [8]  00 00 73 FD 21 14 21 14
 (1789026008.748999)  can0  181   [8]  00 00 D3 FD 21 14 21 14
 (1789026008.798949)  can0  181   [8]  00 00 32 FE 21 14 21 14
 (1789026008.848897)  can0  181   [8]  00 00 91 FE 21 14 21 14
 (1789026008.898845)  can0  181   [8]  00 00 0B FF 21 14 21 14
 (1789026008.920116)  can0  701   [1]  05
 (1789026008.948793)  can0  181   [8]  00 00 3E FF 21 14 21 14
 (1789026008.998739)  can0  181   [8]  00 00 4E FE 21 14 21 14
 (1789026009.048688)  can0  181   [8]  00 00 FC FC 21 14 21 14
 (1789026009.098636)  can0  181   [8]  00 00 A5 FC 21 14 21 14
 (1789026009.148583)  can0  181   [8]  00 00 EC FC 21 14 21 14
 (1789026009.169607)  can0  701   [1]  05
 (1789026009.169935)  can0  601   [8]  40 41 60 00 00 00 00 00
 (1789026009.170285)  can0  581   [8]  43 41 60 00 21 14 21 14
 (1789026009.171481)  can0  601   [8]  40 6C 60 01 00 00 00 00
 (1789026009.171790)  can0  581   [8]  43 6C 60 01 00 00 00 00
 (1789026009.173481)  can0  601   [8]  40 6C 60 02 00 00 00 00
 (1789026009.173786)  can0  581   [8]  43 6C 60 02 18 FD FF FF
 (1789026009.175479)  can0  601   [8]  40 6C 60 03 00 00 00 00
 (1789026009.175785)  can0  581   [8]  43 6C 60 03 00 00 1C FD
 (1789026009.198534)  can0  181   [8]  00 00 46 FD 21 14 21 14
 (1789026009.248477)  can0  181   [8]  00 00 A1 FD 21 14 21 14
 (1789026009.298430)  can0  181   [8]  00 00 FD FD 21 14 21 14
 (1789026009.348377)  can0  181   [8]  00 00 5A FE 21 14 21 14
 (1789026009.398322)  can0  181   [8]  00 00 B2 FE 21 14 21 14
 (1789026009.419157)  can0  701   [1]  05
 (1789026009.448272)  can0  181   [8]  00 00 36 FF 21 14 21 14
 (1789026009.498224)  can0  181   [8]  00 00 3F FF 21 14 21 14
 (1789026009.548170)  can0  181   [8]  00 00 43 FE 21 14 21 14
 (1789026009.598117)  can0  181   [8]  00 00 6E FD 21 14 21 14
 (1789026009.648063)  can0  181   [8]  00 00 E7 FC 21 14 21 14
 (1789026009.668652)  can0  701   [1]  05
 (1789026009.698013)  can0  181   [8]  00 00 FA FC 21 14 21 14
 (1789026009.747963)  can0  181   [8]  00 00 5D FD 21 14 21 14
 (1789026009.797908)  can0  181   [8]  00 00 BD FD 21 14 21 14
 (1789026009.847858)  can0  181   [8]  00 00 1E FE 21 14 21 14
 (1789026009.897808)  can0  181   [8]  00 00 7C FE 21 14 21 14
 (1789026009.918150)  can0  701   [1]  05
 (1789026009.947752)  can0  181   [8]  00 00 D8 FE 21 14 21 14
 (1789026009.997702)  can0  181   [8]  00 00 5C FF 21 14 21 14
 (1789026010.047652)  can0  181   [8]  00 00 6A FF 21 14 21 14
 (1789026010.097597)  can0  181   [8]  00 00 86 FE 21 14 21 14
 (1789026010.147549)  can0  181   [8]  00 00 A0 FD 21 14 21 14
 (1789026010.167696)  can0  701   [1]  05
 (1789026010.176483)  can0  601   [8]  40 41 60 00 00 00 00 00
 (1789026010.176733)  can0  581   [8]  43 41 60 00 21 14 21 14
 (1789026010.178482)  can0  601   [8]  40 6C 60 01 00 00 00 00
 (1789026010.178793)  can0  581   [8]  43 6C 60 01 00 00 00 00
 (1789026010.180482)  can0  601   [8]  40 6C 60 02 00 00 00 00
 (1789026010.180786)  can0  581   [8]  43 6C 60 02 2E FD FF FF
 (1789026010.182476)  can0  601   [8]  40 6C 60 03 00 00 00 00
 (1789026010.182723)  can0  581   [8]  43 6C 60 03 00 00 29 FD
 (1789026010.197494)  can0  181   [8]  00 00 02 FD 21 14 21 14
 (1789026010.247441)  can0  181   [8]  00 00 EB FC 21 14 21 14
 (1789026010.297390)  can0  181   [8]  00 00 42 FD 21 14 21 14
 (1789026010.347339)  can0  181   [8]  00 00 9B FD 21 14 21 14
 (1789026010.397286)  can0  181   [8]  00 00 F5 FD 21 14 21 14
 (1789026010.417187)  can0  701   [1]  05
 (1789026010.447234)  can0  181   [8]  00 00 4D FE 21 14 21 14
 (1789026010.497181)  can0  181   [8]  00 00 A7 FE 21 14 21 14
 (1789026010.547131)  can0  181   [8]  00 00 0A FF 21 14 21 14
 (1789026010.597078)  can0  181   [8]  00 00 68 FF 21 14 21 14
 (1789026010.647025)  can0  181   [8]  00 00 F5 FE 21 14 21 14
 (1789026010.666741)  can0  701   [1]  05
 (1789026010.696973)  can0  181   [8]  00 00 C5 FD 21 14 21 14
 (1789026010.746927)  can0  181   [8]  00 00 2D FD 21 14 21 14
 (1789026010.796871)  can0  181   [8]  00 00 09 FD 21 14 21 14
 (1789026010.846820)  can0  181   [8]  00 00 58 FD 21 14 21 14
 (1789026010.896767)  can0  181   [8]  00 00 BA FD 21 14 21 14
 (1789026010.916231)  can0  701   [1]  05
 (1789026010.946717)  can0  181   [8]  00 00 19 FE 21 14 21 14
 (1789026010.996667)  can0  181   [8]  00 00 79 FE 21 14 21 14
 (1789026011.046609)  can0  181   [8]  00 00 DA FE 21 14 21 14
 (1789026011.096559)  can0  181   [8]  00 00 55 FF 21 14 21 14
 (1789026011.146509)  can0  181   [8]  00 00 C7 FF 21 14 21 14
 (1789026011.165786)  can0  701   [1]  05
 (1789026011.182488)  can0  601   [8]  40 41 60 00 00 00 00 00
 (1789026011.182799)  can0  581   [8]  43 41 60 00 21 14 21 14
 (1789026011.184482)  can0  601   [8]  40 6C 60 01 00 00 00 00
 (1789026011.184802)  can0  581   [8]  43 6C 60 01 00 00 00 00
 (1789026011.186481)  can0  601   [8]  40 6C 60 02 00 00 00 00
 (1789026011.186799)  can0  581   [8]  43 6C 60 02 37 FF FF FF
 (1789026011.188477)  can0  601   [8]  40 6C 60 03 00 00 00 00
 (1789026011.188790)  can0  581   [8]  43 6C 60 03 00 00 2B FF
 (1789026011.196456)  can0  181   [8]  00 00 FB FE 21 14 21 14
 (1789026011.246406)  can0  181   [8]  00 00 15 FE 21 14 21 14
 (1789026011.296352)  can0  181   [8]  00 00 72 FD 21 14 21 14
 (1789026011.346299)  can0  181   [8]  00 00 33 FD 21 14 21 14
 (1789026011.396249)  can0  181   [8]  00 00 7C FD 21 14 21 14
 (1789026011.415276)  can0  701   [1]  05
 (1789026011.446195)  can0  181   [8]  00 00 D8 FD 21 14 21 14
 (1789026011.496144)  can0  181   [8]  00 00 33 FE 21 14 21 14
 (1789026011.546090)  can0  181   [8]  00 00 8A FE 21 14 21 14
 (1789026011.596038)  can0  181   [8]  00 00 E1 FE 21 14 21 14
 (1789026011.645990)  can0  181   [8]  00 00 30 FF 21 14 21 14
 (1789026011.664830)  can0  701   [1]  05
 (1789026011.695934)  can0  181   [8]  00 00 8E FF 21 14 21 14
 (1789026011.745885)  can0  181   [8]  00 00 E4 FF 21 14 21 14
 (1789026011.795833)  can0  181   [8]  00 00 18 FF 21 14 21 14
 (1789026011.845787)  can0  181   [8]  00 00 07 FE 21 14 21 14
 (1789026011.895732)  can0  181   [8]  00 00 66 FD 21 14 21 14
 (1789026011.914324)  can0  701   [1]  05
 (1789026011.945678)  can0  181   [8]  00 00 21 FD 21 14 21 14
 (1789026011.995626)  can0  181   [8]  00 00 79 FD 21 14 21 14
 (1789026012.045572)  can0  181   [8]  00 00 D9 FD 21 14 21 14
 (1789026012.095520)  can0  181   [8]  00 00 36 FE 21 14 21 14
 (1789026012.145469)  can0  181   [8]  00 00 94 FE 21 14 21 14
 (1789026012.163873)  can0  701   [1]  05
 (1789026012.188485)  can0  601   [8]  40 41 60 00 00 00 00 00
 (1789026012.188806)  can0  581   [8]  43 41 60 00 21 14 21 14
 (1789026012.190481)  can0  601   [8]  40 6C 60 01 00 00 00 00
 (1789026012.190810)  can0  581   [8]  43 6C 60 01 00 00 00 00
 (1789026012.192479)  can0  601   [8]  40 6C 60 02 00 00 00 00
 (1789026012.192805)  can0  581   [8]  43 6C 60 02 FB FE FF FF
 (1789026012.194476)  can0  601   [8]  40 6C 60 03 00 00 00 00
 (1789026012.194800)  can0  581   [8]  43 6C 60 03 00 00 02 FF
 (1789026012.195480)  can0  181   [8]  00 00 04 FF 21 14 21 14
 (1789026012.245428)  can0  181   [8]  00 00 94 FF 21 14 21 14
 (1789026012.295378)  can0  181   [8]  00 00 6C FF 21 14 21 14
 (1789026012.345329)  can0  181   [8]  00 00 40 FE 21 14 21 14
 (1789026012.395276)  can0  181   [8]  00 00 15 FD 21 14 21 14
 (1789026012.413428)  can0  701   [1]  05
 (1789026012.445220)  can0  181   [8]  00 00 BA FC 21 14 21 14
 (1789026012.495168)  can0  181   [8]  00 00 0E FD 21 14 21 14
 (1789026012.545123)  can0  181   [8]  00 00 6F FD 21 14 21 14
 (1789026012.595063)  can0  181   [8]  00 00 CD FD 21 14 21 14
 (1789026012.645016)  can0  181   [8]  00 00 2A FE 21 14 21 14
 (1789026012.662917)  can0  701   [1]  05
 (1789026012.694961)  can0  181   [8]  00 00 84 FE 21 14 21 14
 (1789026012.744909)  can0  181   [8]  00 00 DB FE 21 14 21 14
 (1789026012.794856)  can0  181   [8]  00 00 55 FF 21 14 21 14
 (1789026012.844807)  can0  181   [8]  00 00 4B FF 21 14 21 14
 (1789026012.894753)  can0  181   [8]  00 00 5B FE 21 14 21 14
 (1789026012.912470)  can0  701   [1]  05
 (1789026012.944700)  can0  181   [8]  00 00 95 FD 21 14 21 14
 (1789026012.994652)  can0  181   [8]  00 00 29 FD 21 14 21 14
 (1789026013.044598)  can0  181   [8]  00 00 3A FD 21 14 21 14
 (1789026013.094548)  can0  181   [8]  00 00 94 FD 21 14 21 14
 (1789026013.144494)  can0  181   [8]  00 00 EF FD 21 14 21 14
 (1789026013.161962)  can0  701   [1]  05
 (1789026013.194444)  can0  181   [8]  00 00 4A FE 21 14 21 14
 (1789026013.194686)  can0  601   [8]  40 41 60 00 00 00 00 00
 (1789026013.195001)  can0  581   [8]  43 41 60 00 21 14 21 14
 (1789026013.196481)  can0  601   [8]  40 6C 60 01 00 00 00 00
 (1789026013.196817)  can0  581   [8]  43 6C 60 01 00 00 00 00
 (1789026013.198479)  can0  601   [8]  40 6C 60 02 00 00 00 00
 (1789026013.198810)  can0  581   [8]  43 6C 60 02 52 FE FF FF
 (1789026013.200476)  can0  601   [8]  40 6C 60 03 00 00 00 00
 (1789026013.200805)  can0  581   [8]  43 6C 60 03 00 00 55 FE
 (1789026013.244392)  can0  181   [8]  00 00 A5 FE 21 14 21 14
 (1789026013.294342)  can0  181   [8]  00 00 08 FF 21 14 21 14
 (1789026013.344286)  can0  181   [8]  00 00 99 FF 21 14 21 14
 (1789026013.394235)  can0  181   [8]  00 00 58 FF 21 14 21 14
 (1789026013.411519)  can0  701   [1]  05
 (1789026013.444181)  can0  181   [8]  00 00 10 FE 21 14 21 14
 (1789026013.494132)  can0  181   [8]  FE FF 7E FD 21 14 21 14
 (1789026013.544079)  can0  181   [8]  01 00 1E FD 21 14 21 14
 (1789026013.594028)  can0  181   [8]  00 00 4A FD 21 14 21 14
 (1789026013.643974)  can0  181   [8]  00 00 AB FD 21 14 21 14
 (1789026013.661007)  can0  701   [1]  05
 (1789026013.693924)  can0  181   [8]  00 00 0B FE 21 14 21 14
 (1789026013.743876)  can0  181   [8]  00 00 6C FE 21 14 21 14
 (1789026013.793882)  can0  181   [8]  00 00 C7 FE 21 14 21 14
 (1789026013.843892)  can0  181   [8]  00 00 32 FF 21 14 21 14
 (1789026013.893902)  can0  181   [8]  00 00 9E FF 21 14 21 14
 (1789026013.910560)  can0  701   [1]  05
 (1789026013.943917)  can0  181   [8]  00 00 45 FF 21 14 21 14
 (1789026013.993921)  can0  181   [8]  00 00 86 FE 21 14 21 14
 (1789026014.043934)  can0  181   [8]  00 00 23 FE 21 14 21 14
 (1789026014.093944)  can0  181   [8]  00 00 A6 FD 21 14 21 14
 (1789026014.143955)  can0  181   [8]  00 00 7C FD 21 14 21 14
 (1789026014.160114)  can0  701   [1]  05
 (1789026014.193964)  can0  181   [8]  00 00 CD FD 21 14 21 14
 (1789026014.201483)  can0  601   [8]  40 41 60 00 00 00 00 00
 (1789026014.201818)  can0  581   [8]  43 41 60 00 21 14 21 14
 (1789026014.203481)  can0  601   [8]  40 6C 60 01 00 00 00 00
 (1789026014.203823)  can0  581   [8]  43 6C 60 01 00 00 00 00
 (1789026014.205478)  can0  601   [8]  40 6C 60 02 00 00 00 00
 (1789026014.205813)  can0  581   [8]  43 6C 60 02 E1 FD FF FF
 (1789026014.207450)  can0  601   [8]  40 6C 60 03 00 00 00 00
 (1789026014.207811)  can0  581   [8]  43 6C 60 03 00 00 E5 FD
 (1789026014.243972)  can0  181   [8]  00 00 25 FE 21 14 21 14
 (1789026014.293929)  can0  181   [8]  00 00 7C FE 21 14 21 14
 (1789026014.343932)  can0  181   [8]  00 00 D3 FE 21 14 21 14
 (1789026014.393884)  can0  181   [8]  00 00 71 FF 21 14 21 14
 (1789026014.409604)  can0  701   [1]  05
 (1789026014.443827)  can0  181   [8]  00 00 B8 FF 21 14 21 14
 (1789026014.493777)  can0  181   [8]  00 00 F1 FE 21 14 21 14
 (1789026014.543703)  can0  181   [8]  00 00 45 FE 21 14 21 14
 (1789026014.593674)  can0  181   [8]  02 00 13 FE 21 14 21 14
 (1789026014.643622)  can0  181   [8]  00 00 F8 FD 21 14 21 14
 (1789026014.659158)  can0  701   [1]  05
 (1789026014.693572)  can0  181   [8]  00 00 22 FE 21 14 21 14
 (1789026014.743520)  can0  181   [8]  00 00 79 FE 21 14 21 14
 (1789026014.793467)  can0  181   [8]  00 00 D7 FE 21 14 21 14
 (1789026014.843418)  can0  181   [8]  00 00 30 FF 21 14 21 14
 (1789026014.893364)  can0  181   [8]  00 00 9B FF 21 14 21 14
 (1789026014.908652)  can0  701   [1]  05
 (1789026014.943312)  can0  181   [8]  00 00 04 00 21 14 21 14
 (1789026014.993260)  can0  181   [8]  00 00 97 FF 21 14 21 14
 (1789026015.043204)  can0  181   [8]  00 00 E9 FE 21 14 21 14
 (1789026015.093158)  can0  181   [8]  00 00 3B FE 21 14 21 14
 (1789026015.143100)  can0  181   [8]  00 00 84 FD 21 14 21 14
 (1789026015.158201)  can0  701   [1]  05
 (1789026015.193052)  can0  181   [8]  00 00 71 FD 21 14 21 14
 (1789026015.208487)  can0  601   [8]  40 41 60 00 00 00 00 00
 (1789026015.208828)  can0  581   [8]  43 41 60 00 21 14 21 14
 (1789026015.210483)  can0  601   [8]  40 6C 60 01 00 00 00 00
 (1789026015.210832)  can0  581   [8]  43 6C 60 01 00 00 00 00
 (1789026015.212480)  can0  601   [8]  40 6C 60 02 00 00 00 00
 (1789026015.212822)  can0  581   [8]  43 6C 60 02 8E FD FF FF
 (1789026015.214479)  can0  601   [8]  40 6C 60 03 00 00 00 00
 (1789026015.214817)  can0  581   [8]  43 6C 60 03 00 00 91 FD
 (1789026015.242996)  can0  181   [8]  00 00 C4 FD 21 14 21 14
 (1789026015.292949)  can0  181   [8]  00 00 26 FE 21 14 21 14
 (1789026015.342893)  can0  181   [8]  00 00 BB FE 21 14 21 14
 (1789026015.392847)  can0  181   [8]  00 00 5F FF 21 14 21 14
 (1789026015.407694)  can0  701   [1]  05
 (1789026015.442789)  can0  181   [8]  00 00 B6 FF 21 14 21 14
 (1789026015.492742)  can0  181   [8]  00 00 FC FF 21 14 21 14
 (1789026015.542687)  can0  181   [8]  00 00 51 FF 21 14 21 14
 (1789026015.592637)  can0  181   [8]  00 00 FE FD 21 14 21 14
 (1789026015.642586)  can0  181   [8]  00 00 50 FD 21 14 21 14
 (1789026015.657247)  can0  701   [1]  05
 (1789026015.692533)  can0  181   [8]  00 00 44 FD 21 14 21 14
 (1789026015.742479)  can0  181   [8]  00 00 9F FD 21 14 21 14
 (1789026015.792427)  can0  181   [8]  00 00 FA FD 21 14 21 14
 (1789026015.842379)  can0  181   [8]  00 00 51 FE 21 14 21 14
 (1789026015.892323)  can0  181   [8]  00 00 AA FE 21 14 21 14
 (1789026015.906738)  can0  701   [1]  05
 (1789026015.942274)  can0  181   [8]  00 00 06 FF 21 14 21 14
 (1789026015.992220)  can0  181   [8]  00 00 51 FF 21 14 21 14
 (1789026016.042167)  can0  181   [8]  00 00 C8 FF 21 14 21 14
 (1789026016.092118)  can0  181   [8]  03 00 9C FF 21 14 21 14
 (1789026016.142069)  can0  181   [8]  00 00 77 FE 21 14 21 14
 (1789026016.156292)  can0  701   [1]  05
 (1789026016.192012)  can0  181   [8]  00 00 D3 FD 21 14 21 14
 (1789026016.213488)  can0  601   [8]  40 41 60 00 00 00 00 00
 (1789026016.213836)  can0  581   [8]  43 41 60 00 21 14 21 14
 (1789026016.215483)  can0  601   [8]  40 6C 60 01 00 00 00 00
 (1789026016.215838)  can0  581   [8]  43 6C 60 01 00 00 00 00
 (1789026016.217479)  can0  601   [8]  40 6C 60 02 00 00 00 00
 (1789026016.217830)  can0  581   [8]  43 6C 60 02 86 FD FF FF
 (1789026016.219479)  can0  601   [8]  40 6C 60 03 00 00 00 00
 (1789026016.219828)  can0  581   [8]  43 6C 60 03 00 00 80 FD
 (1789026016.241960)  can0  181   [8]  00 00 48 FD 21 14 21 14
 (1789026016.291908)  can0  181   [8]  00 00 31 FD 21 14 21 14
 (1789026016.341856)  can0  181   [8]  00 00 8C FD 21 14 21 14
 (1789026016.391803)  can0  181   [8]  00 00 E6 FD 21 14 21 14
 (1789026016.405782)  can0  701   [1]  05
 (1789026016.441752)  can0  181   [8]  00 00 44 FE 21 14 21 14
 (1789026016.491701)  can0  181   [8]  00 00 A1 FE 21 14 21 14
 (1789026016.541654)  can0  181   [8]  00 00 03 FF 21 14 21 14
 (1789026016.591593)  can0  181   [8]  00 00 92 FF 21 14 21 14
 (1789026016.641545)  can0  181   [8]  00 00 9E FF 21 14 21 14
 (1789026016.655334)  can0  701   [1]  05
 (1789026016.691496)  can0  181   [8]  00 00 6A FE 21 14 21 14
 (1789026016.741442)  can0  181   [8]  FB FF 26 FD 21 14 21 14
 (1789026016.791391)  can0  181   [8]  00 00 9A FC 21 14 21 14
 (1789026016.841336)  can0  181   [8]  00 00 D9 FC 21 14 21 14
 (1789026016.891287)  can0  181   [8]  00 00 3B FD 21 14 21 14
 (1789026016.904828)  can0  701   [1]  05
 (1789026016.941233)  can0  181   [8]  00 00 9C FD 21 14 21 14
 (1789026016.991183)  can0  181   [8]  00 00 FA FD 21 14 21 14
 (1789026017.041130)  can0  181   [8]  00 00 54 FE 21 14 21 14
 (1789026017.091077)  can0  181   [8]  00 00 AE FE 21 14 21 14
 (1789026017.141028)  can0  181   [8]  00 00 52 FF 21 14 21 14
 (1789026017.154381)  can0  701   [1]  05
 (1789026017.190979)  can0  181   [8]  00 00 32 FF 21 14 21 14
 (1789026017.220486)  can0  601   [8]  40 41 60 00 00 00 00 00
 (1789026017.220787)  can0  581   [8]  43 41 60 00 21 14 21 14
 (1789026017.222480)  can0  601   [8]  40 6C 60 01 00 00 00 00
 (1789026017.222732)  can0  581   [8]  43 6C 60 01 00 00 00 00
 (1789026017.224481)  can0  601   [8]  40 6C 60 02 00 00 00 00
 (1789026017.224838)  can0  581   [8]  43 6C 60 02 FF FD FF FF
 (1789026017.226478)  can0  601   [8]  40 6C 60 03 00 00 00 00
 (1789026017.226830)  can0  581   [8]  43 6C 60 03 00 00 EC FD
 (1789026017.240921)  can0  181   [8]  00 00 72 FD 21 14 21 14
 (1789026017.290871)  can0  181   [8]  FF FF C9 FC 21 14 21 14
 (1789026017.340820)  can0  181   [8]  01 00 BD FC 21 14 21 14
 (1789026017.390771)  can0  181   [8]  00 00 0F FD 21 14 21 14
 (1789026017.403871)  can0  701   [1]  05
 (1789026017.440777)  can0  181   [8]  00 00 6E FD 21 14 21 14
 (1789026017.490729)  can0  181   [8]  00 00 CA FD 21 14 21 14
 (1789026017.540675)  can0  181   [8]  00 00 28 FE 21 14 21 14
 (1789026017.590618)  can0  181   [8]  00 00 85 FE 21 14 21 14
 (1789026017.640568)  can0  181   [8]  00 00 DE FE 21 14 21 14
 (1789026017.653424)  can0  701   [1]  05
 (1789026017.690521)  can0  181   [8]  00 00 54 FF 21 14 21 14
 (1789026017.740468)  can0  181   [8]  00 00 1C FF 21 14 21 14
 (1789026017.790412)  can0  181   [8]  00 00 9A FD 21 14 21 14
 (1789026017.840360)  can0  181   [8]  00 00 AC FC 21 14 21 14
 (1789026017.890309)  can0  181   [8]  00 00 C6 FC 21 14 21 14
 (1789026017.902917)  can0  701   [1]  05
 (1789026017.940258)  can0  181   [8]  00 00 26 FD 21 14 21 14
 (1789026017.990204)  can0  181   [8]  00 00 89 FD 21 14 21 14
 (1789026018.040154)  can0  181   [8]  00 00 E8 FD 21 14 21 14
 (1789026018.090102)  can0  181   [8]  00 00 45 FE 21 14 21 14
 (1789026018.140050)  can0  181   [8]  00 00 A0 FE 21 14 21 14
 (1789026018.152467)  can0  701   [1]  05
 (1789026018.189999)  can0  181   [8]  00 00 FE FE 21 14 21 14
 (1789026018.226486)  can0  601   [8]  40 41 60 00 00 00 00 00
 (1789026018.226787)  can0  581   [8]  43 41 60 00 21 14 21 14
 (1789026018.228482)  can0  601   [8]  40 6C 60 01 00 00 00 00
 (1789026018.228790)  can0  581   [8]  43 6C 60 01 00 00 00 00
 (1789026018.230482)  can0  601   [8]  40 6C 60 02 00 00 00 00
 (1789026018.230786)  can0  581   [8]  43 6C 60 02 54 FF FF FF
 (1789026018.232477)  can0  601   [8]  40 6C 60 03 00 00 00 00
 (1789026018.232783)  can0  581   [8]  43 6C 60 03 00 00 5A FF
 (1789026018.239948)  can0  181   [8]  00 00 6D FF 21 14 21 14
 (1789026018.289895)  can0  181   [8]  00 00 72 FF 21 14 21 14
 (1789026018.339843)  can0  181   [8]  00 00 68 FE 21 14 21 14
 (1789026018.389790)  can0  181   [8]  00 00 69 FD 21 14 21 14
 (1789026018.401960)  can0  701   [1]  05
 (1789026018.439741)  can0  181   [8]  00 00 29 FD 21 14 21 14
 (1789026018.489690)  can0  181   [8]  00 00 77 FD 21 14 21 14
 (1789026018.539633)  can0  181   [8]  00 00 D3 FD 21 14 21 14
 (1789026018.589585)  can0  181   [8]  00 00 2A FE 21 14 21 14
 (1789026018.639533)  can0  181   [8]  00 00 82 FE 21 14 21 14
 (1789026018.651512)  can0  701   [1]  05
 (1789026018.689538)  can0  181   [8]  00 00 DD FE 21 14 21 14
 (1789026018.739490)  can0  181   [8]  00 00 38 FF 21 14 21 14
 (1789026018.789438)  can0  181   [8]  00 00 AE FF 21 14 21 14
 (1789026018.839390)  can0  181   [8]  00 00 02 FF 21 14 21 14
 (1789026018.889334)  can0  181   [8]  00 00 EC FD 21 14 21 14
 (1789026018.901065)  can0  701   [1]  05
 (1789026018.939285)  can0  181   [8]  00 00 24 FD 21 14 21 14
 (1789026018.989292)  can0  181   [8]  00 00 0D FD 21 14 21 14
 (1789026019.039302)  can0  181   [8]  00 00 69 FD 21 14 21 14
 (1789026019.089314)  can0  181   [8]  00 00 CA FD 21 14 21 14
 (1789026019.139326)  can0  181   [8]  00 00 2A FE 21 14 21 14
 (1789026019.150619)  can0  701   [1]  05
 (1789026019.189332)  can0  181   [8]  00 00 8A FE 21 14 21 14
 (1789026019.232487)  can0  601   [8]  40 41 60 00 00 00 00 00
 (1789026019.232797)  can0  581   [8]  43 41 60 00 21 14 21 14
 (1789026019.234484)  can0  601   [8]  40 6C 60 01 00 00 00 00
 (1789026019.234800)  can0  581   [8]  43 6C 60 01 00 00 00 00
 (1789026019.236481)  can0  601   [8]  40 6C 60 02 00 00 00 00
 (1789026019.236790)  can0  581   [8]  43 6C 60 02 E2 FE FF FF
 (1789026019.238479)  can0  601   [8]  40 6C 60 03 00 00 00 00
 (1789026019.238787)  can0  581   [8]  43 6C 60 03 00 00 E5 FE
 (1789026019.239344)  can0  181   [8]  00 00 E6 FE 21 14 21 14
 (1789026019.289356)  can0  181   [8]  00 00 64 FF 21 14 21 14
 (1789026019.339366)  can0  181   [8]  00 00 94 FF 21 14 21 14
 (1789026019.389379)  can0  181   [8]  00 00 6B FE 21 14 21 14
 (1789026019.400173)  can0  701   [1]  05
 (1789026019.439391)  can0  181   [8]  00 00 41 FD 21 14 21 14
 (1789026019.489395)  can0  181   [8]  00 00 E8 FC 21 14 21 14
 (1789026019.539408)  can0  181   [8]  00 00 2C FD 21 14 21 14
 (1789026019.589416)  can0  181   [8]  00 00 89 FD 21 14 21 14
 (1789026019.639427)  can0  181   [8]  00 00 E3 FD 21 14 21 14
 (1789026019.649723)  can0  701   [1]  05
 (1789026019.689437)  can0  181   [8]  00 00 3C FE 21 14 21 14
 (1789026019.739448)  can0  181   [8]  00 00 93 FE 21 14 21 14
 (1789026019.789457)  can0  181   [8]  00 00 EB FE 21 14 21 14
 (1789026019.839471)  can0  181   [8]  00 00 46 FF 21 14 21 14
 (1789026019.889480)  can0  181   [8]  00 00 94 FF 21 14 21 14
 (1789026019.899216)  can0  701   [1]  05
 (1789026019.939439)  can0  181   [8]  00 00 E9 FF 21 14 21 14
 (1789026019.989455)  can0  181   [8]  00 00 18 00 21 14 21 14
 (1789026020.039520)  can0  181   [8]  00 00 FC FF 21 14 21 14
 (1789026020.089524)  can0  181   [8]  00 00 05 00 21 14 21 14
 (1789026020.139537)  can0  181   [8]  00 00 FC FF 21 14 21 14
 (1789026020.148771)  can0  701   [1]  05
 (1789026020.189545)  can0  181   [8]  00 00 97 FF 21 14 21 14
 (1789026020.238497)  can0  601   [8]  40 41 60 00 00 00 00 00
 (1789026020.238806)  can0  581   [8]  43 41 60 00 21 14 21 14
 (1789026020.239557)  can0  181   [8]  00 00 8E FE 21 14 21 14
 (1789026020.239893)  can0  601   [8]  40 6C 60 01 00 00 00 00
 (1789026020.240247)  can0  581   [8]  43 6C 60 01 00 00 00 00
 (1789026020.241490)  can0  601   [8]  40 6C 60 02 00 00 00 00
 (1789026020.241801)  can0  581   [8]  43 6C 60 02 7D FE FF FF
 (1789026020.243477)  can0  601   [8]  40 6C 60 03 00 00 00 00
 (1789026020.243797)  can0  581   [8]  43 6C 60 03 00 00 6E FE
 (1789026020.289563)  can0  181   [8]  00 00 E4 FC 21 14 21 14
 (1789026020.339576)  can0  181   [8]  00 00 49 FC 21 14 21 14
 (1789026020.389587)  can0  181   [8]  04 00 94 FC 21 14 21 14
 (1789026020.398264)  can0  701   [1]  05
 (1789026020.439597)  can0  181   [8]  00 00 F5 FC 21 14 21 14
 (1789026020.489608)  can0  181   [8]  00 00 5A FD 21 14 21 14
 (1789026020.539614)  can0  181   [8]  00 00 BB FD 21 14 21 14
 (1789026020.589630)  can0  181   [8]  00 00 1C FE 21 14 21 14
 (1789026020.639643)  can0  181   [8]  00 00 7D FE 21 14 21 14
 (1789026020.647816)  can0  701   [1]  05
 (1789026020.689651)  can0  181   [8]  00 00 DF FE 21 14 21 14
 (1789026020.739660)  can0  181   [8]  00 00 33 FF 21 14 21 14
 (1789026020.789674)  can0  181   [8]  00 00 9F FF 21 14 21 14
 (1789026020.839681)  can0  181   [8]  00 00 0F 00 21 14 21 14
 (1789026020.889695)  can0  181   [8]  00 00 1C 00 21 14 21 14
 (1789026020.897306)  can0  701   [1]  05
 (1789026020.939708)  can0  181   [8]  00 00 03 00 21 14 21 14
 (1789026020.989713)  can0  181   [8]  00 00 F6 FF 21 14 21 14
 (1789026021.039729)  can0  181   [8]  00 00 7B FF 21 14 21 14
 (1789026021.089732)  can0  181   [8]  00 00 18 FE 21 14 21 14
 (1789026021.139739)  can0  181   [8]  00 00 E2 FC 21 14 21 14
 (1789026021.146860)  can0  701   [1]  05
 (1789026021.189756)  can0  181   [8]  00 00 81 FC 21 14 21 14
 (1789026021.239761)  can0  181   [8]  00 00 D4 FC 21 14 21 14
 (1789026021.243491)  can0  601   [8]  40 41 60 00 00 00 00 00
 (1789026021.243815)  can0  581   [8]  43 41 60 00 21 14 21 14
 (1789026021.245486)  can0  601   [8]  40 6C 60 01 00 00 00 00
 (1789026021.245818)  can0  581   [8]  43 6C 60 01 00 00 00 00
 (1789026021.247520)  can0  601   [8]  40 6C 60 02 00 00 00 00
 (1789026021.247761)  can0  581   [8]  43 6C 60 02 E3 FC FF FF
 (1789026021.249420)  can0  601   [8]  40 6C 60 03 00 00 00 00
 (1789026021.249749)  can0  581   [8]  43 6C 60 03 00 00 E7 FC
 (1789026021.289774)  can0  181   [8]  00 00 34 FD 21 14 21 14
 (1789026021.339786)  can0  181   [8]  00 00 8D FD 21 14 21 14
 (1789026021.389793)  can0  181   [8]  00 00 E9 FD 21 14 21 14
 (1789026021.396350)  can0  701   [1]  05
 (1789026021.439809)  can0  181   [8]  00 00 41 FE 21 14 21 14
 (1789026021.489817)  can0  181   [8]  00 00 99 FE 21 14 21 14
 (1789026021.539829)  can0  181   [8]  00 00 EF FE 21 14 21 14
 (1789026021.589840)  can0  181   [8]  00 00 43 FF 21 14 21 14
 (1789026021.639844)  can0  181   [8]  00 00 9A FF 21 14 21 14
 (1789026021.645903)  can0  701   [1]  05
 (1789026021.689859)  can0  181   [8]  00 00 F7 FF 21 14 21 14
 (1789026021.739869)  can0  181   [8]  00 00 14 00 21 14 21 14
 (1789026021.789878)  can0  181   [8]  00 00 FE FF 21 14 21 14
 (1789026021.839892)  can0  181   [8]  00 00 00 00 21 14 21 14
 (1789026021.889898)  can0  181   [8]  00 00 EF FF 21 14 21 14
 (1789026021.895396)  can0  701   [1]  05
 (1789026021.939913)  can0  181   [8]  00 00 6E FF 21 14 21 14
 (1789026021.989922)  can0  181   [8]  00 00 72 FE 21 14 21 14
 (1789026022.039930)  can0  181   [8]  00 00 9A FD 21 14 21 14
 (1789026022.089944)  can0  181   [8]  00 00 EE FC 21 14 21 14
 (1789026022.139951)  can0  181   [8]  00 00 0E FD 21 14 21 14
 (1789026022.145007)  can0  701   [1]  05
 (1789026022.189966)  can0  181   [8]  00 00 6F FD 21 14 21 14
 (1789026022.239976)  can0  181   [8]  00 00 CF FD 21 14 21 14
 (1789026022.250490)  can0  601   [8]  40 41 60 00 00 00 00 00
 (1789026022.250822)  can0  581   [8]  43 41 60 00 21 14 21 14
 (1789026022.252483)  can0  601   [8]  40 6C 60 01 00 00 00 00
 (1789026022.252823)  can0  581   [8]  43 6C 60 01 00 00 00 00
 (1789026022.254481)  can0  601   [8]  40 6C 60 02 00 00 00 00
 (1789026022.254815)  can0  581   [8]  43 6C 60 02 ED FD FF FF
 (1789026022.256477)  can0  601   [8]  40 6C 60 03 00 00 00 00
 (1789026022.256810)  can0  581   [8]  43 6C 60 03 00 00 F1 FD
 (1789026022.289984)  can0  181   [8]  00 00 2F FE 21 14 21 14
 (1789026022.339994)  can0  181   [8]  00 00 8E FE 21 14 21 14
 (1789026022.390002)  can0  181   [8]  00 00 EB FE 21 14 21 14
 (1789026022.394503)  can0  701   [1]  05
 (1789026022.440019)  can0  181   [8]  00 00 4F FF 21 14 21 14
 (1789026022.490025)  can0  181   [8]  00 00 BE FF 21 14 21 14
 (1789026022.540032)  can0  181   [8]  00 00 E2 FF 21 14 21 14
 (1789026022.590048)  can0  181   [8]  00 00 F2 FF 21 14 21 14
 (1789026022.640058)  can0  181   [8]  00 00 06 00 21 14 21 14
 (1789026022.644049)  can0  701   [1]  05
 (1789026022.690071)  can0  181   [8]  00 00 EB FF 21 14 21 14
 (1789026022.740134)  can0  181   [8]  00 00 A8 FF 21 14 21 14
 (1789026022.790031)  can0  181   [8]  00 00 31 FF 21 14 21 14
 (1789026022.839981)  can0  181   [8]  00 00 64 FE 21 14 21 14
 (1789026022.889991)  can0  181   [8]  00 00 36 FD 21 14 21 14
 (1789026022.893490)  can0  701   [1]  05
 (1789026022.939994)  can0  181   [8]  00 00 B3 FC 21 14 21 14
 (1789026022.990008)  can0  181   [8]  00 00 FA FC 21 14 21 14
 (1789026023.040020)  can0  181   [8]  00 00 59 FD 21 14 21 14
 (1789026023.090029)  can0  181   [8]  00 00 B3 FD 21 14 21 14
 (1789026023.140051)  can0  181   [8]  00 00 0F FE 21 14 21 14
 (1789026023.143043)  can0  701   [1]  05
 (1789026023.190112)  can0  181   [8]  00 00 68 FE 21 14 21 14
 (1789026023.240121)  can0  181   [8]  00 00 BD FE 21 14 21 14
 (1789026023.255430)  can0  601   [8]  40 41 60 00 00 00 00 00
 (1789026023.255773)  can0  581   [8]  43 41 60 00 21 14 21 14
 (1789026023.257426)  can0  601   [8]  40 6C 60 01 00 00 00 00
 (1789026023.257777)  can0  581   [8]  43 6C 60 01 00 00 00 00
 (1789026023.259426)  can0  601   [8]  40 6C 60 02 00 00 00 00
 (1789026023.259770)  can0  581   [8]  43 6C 60 02 E0 FE FF FF
 (1789026023.261421)  can0  601   [8]  40 6C 60 03 00 00 00 00
 (1789026023.261763)  can0  581   [8]  43 6C 60 03 00 00 E2 FE
 (1789026023.290135)  can0  181   [8]  00 00 10 FF 21 14 21 14
 (1789026023.340144)  can0  181   [8]  00 00 70 FF 21 14 21 14
 (1789026023.390157)  can0  181   [8]  00 00 AF FF 21 14 21 14
 (1789026023.392658)  can0  701   [1]  05
 (1789026023.440167)  can0  181   [8]  00 00 FB FF 21 14 21 14
 (1789026023.490177)  can0  181   [8]  00 00 14 00 21 14 21 14
 (1789026023.540184)  can0  181   [8]  00 00 E1 FF 21 14 21 14
 (1789026023.590200)  can0  181   [8]  00 00 71 FF 21 14 21 14
 (1789026023.640207)  can0  181   [8]  00 00 C7 FE 21 14 21 14
 (1789026023.642211)  can0  701   [1]  05
 (1789026023.690218)  can0  181   [8]  00 00 F4 FD 21 14 21 14
 (1789026023.740227)  can0  181   [8]  00 00 37 FD 21 14 21 14
 (1789026023.790241)  can0  181   [8]  00 00 66 FD 21 14 21 14
 (1789026023.840248)  can0  181   [8]  00 00 C2 FD 21 14 21 14
 (1789026023.890260)  can0  181   [8]  00 00 21 FE 21 14 21 14
 (1789026023.891704)  can0  701   [1]  05
 (1789026023.940271)  can0  181   [8]  00 00 80 FE 21 14 21 14
 (1789026023.990281)  can0  181   [8]  00 00 DF FE 21 14 21 14
 (1789026024.040293)  can0  181   [8]  00 00 40 FF 21 14 21 14
 (1789026024.090301)  can0  181   [8]  00 00 90 FF 21 14 21 14
 (1789026024.140315)  can0  181   [8]  00 00 01 00 21 14 21 14
 (1789026024.141318)  can0  701   [1]  05
 (1789026024.190324)  can0  181   [8]  00 00 1D 00 21 14 21 14
 (1789026024.240332)  can0  181   [8]  00 00 FD FF 21 14 21 14
 (1789026024.261428)  can0  601   [8]  40 41 60 00 00 00 00 00
 (1789026024.261728)  can0  581   [8]  43 41 60 00 21 14 21 14
 (1789026024.263424)  can0  601   [8]  40 6C 60 01 00 00 00 00
 (1789026024.263731)  can0  581   [8]  43 6C 60 01 00 00 00 00
 (1789026024.265424)  can0  601   [8]  40 6C 60 02 00 00 00 00
 (1789026024.265783)  can0  581   [8]  43 6C 60 02 04 00 00 00
 (1789026024.267421)  can0  601   [8]  40 6C 60 03 00 00 00 00
 (1789026024.267776)  can0  581   [8]  43 6C 60 03 00 00 05 00
 (1789026024.290349)  can0  181   [8]  00 00 09 00 21 14 21 14
 (1789026024.340354)  can0  181   [8]  00 00 DB FF 21 14 21 14
 (1789026024.390363)  can0  181   [8]  00 00 94 FF 21 14 21 14
 (1789026024.390808)  can0  701   [1]  05
 (1789026024.440377)  can0  181   [8]  00 00 24 FF 21 14 21 14
 (1789026024.490386)  can0  181   [8]  00 00 62 FE 21 14 21 14
 (1789026024.540396)  can0  181   [8]  00 00 7F FD 21 14 21 14
 (1789026024.590405)  can0  181   [8]  00 00 0D FD 21 14 21 14
 (1789026024.640417)  can0  181   [8]  00 00 49 FD 21 14 21 14
 (1789026024.640533)  can0  701   [1]  05
 (1789026024.690429)  can0  181   [8]  00 00 A8 FD 21 14 21 14
 (1789026024.740438)  can0  181   [8]  00 00 08 FE 21 14 21 14
 (1789026024.790446)  can0  181   [8]  00 00 65 FE 21 14 21 14
 (1789026024.840460)  can0  181   [8]  00 00 C0 FE 21 14 21 14
 (1789026024.889915)  can0  701   [1]  05
 (1789026024.890473)  can0  181   [8]  00 00 13 FF 21 14 21 14
 (1789026024.940481)  can0  181   [8]  00 00 7A FF 21 14 21 14
 (1789026024.990487)  can0  181   [8]  00 00 C5 FF 21 14 21 14
 (1789026025.040499)  can0  181   [8]  00 00 DB FF 21 14 21 14
 (1789026025.090514)  can0  181   [8]  00 00 07 00 21 14 21 14
 (1789026025.139407)  can0  701   [1]  05
 (1789026025.140518)  can0  181   [8]  00 00 C5 FF 21 14 21 14
 (1789026025.190532)  can0  181   [8]  00 00 2F FF 21 14 21 14
 (1789026025.240543)  can0  181   [8]  00 00 7B FE 21 14 21 14
 (1789026025.266428)  can0  601   [8]  40 41 60 00 00 00 00 00
 (1789026025.266730)  can0  581   [8]  43 41 60 00 21 14 21 14
 (1789026025.268425)  can0  601   [8]  40 6C 60 01 00 00 00 00
 (1789026025.268733)  can0  581   [8]  43 6C 60 01 00 00 00 00
 (1789026025.270423)  can0  601   [8]  40 6C 60 02 00 00 00 00
 (1789026025.270736)  can0  581   [8]  43 6C 60 02 E0 FD FF FF
 (1789026025.272421)  can0  601   [8]  40 6C 60 03 00 00 00 00
 (1789026025.272726)  can0  581   [8]  43 6C 60 03 00 00 D4 FD
 (1789026025.290553)  can0  181   [8]  00 00 6C FD 21 14 21 14
 (1789026025.340565)  can0  181   [8]  00 00 E6 FC 21 14 21 14
 (1789026025.388963)  can0  701   [1]  05
 (1789026025.390572)  can0  181   [8]  00 00 2C FD 21 14 21 14
 (1789026025.440582)  can0  181   [8]  00 00 85 FD 21 14 21 14
 (1789026025.490591)  can0  181   [8]  00 00 E4 FD 21 14 21 14
 (1789026025.540607)  can0  181   [8]  00 00 40 FE 21 14 21 14
 (1789026025.590613)  can0  181   [8]  00 00 9D FE 21 14 21 14
 (1789026025.638451)  can0  701   [1]  05
 (1789026025.640624)  can0  181   [8]  00 00 F2 FE 21 14 21 14
 (1789026025.690634)  can0  181   [8]  00 00 4C FF 21 14 21 14
 (1789026025.740646)  can0  181   [8]  00 00 99 FF 21 14 21 14
 (1789026025.790662)  can0  181   [8]  00 00 03 00 21 14 21 14
 (1789026025.840667)  can0  181   [8]  00 00 15 00 21 14 21 14
 (1789026025.888064)  can0  701   [1]  05
 (1789026025.890677)  can0  181   [8]  00 00 F9 FF 21 14 21 14
 (1789026025.940685)  can0  181   [8]  00 00 CE FF 21 14 21 14
 (1789026025.990698)  can0  181   [8]  00 00 6D FF 21 14 21 14
 (1789026026.040706)  can0  181   [8]  00 00 B5 FE 21 14 21 14
 (1789026026.090715)  can0  181   [8]  00 00 C7 FD 21 14 21 14
 (1789026026.137558)  can0  701   [1]  05
 (1789026026.140730)  can0  181   [8]  00 00 34 FD 21 14 21 14
 (1789026026.190741)  can0  181   [8]  00 00 40 FD 21 14 21 14
 (1789026026.240751)  can0  181   [8]  00 00 9F FD 21 14 21 14
 (1789026026.273429)  can0  601   [8]  40 41 60 00 00 00 00 00
 (1789026026.273734)  can0  581   [8]  43 41 60 00 21 14 21 14
 (1789026026.275425)  can0  601   [8]  40 6C 60 01 00 00 00 00
 (1789026026.275738)  can0  581   [8]  43 6C 60 01 00 00 00 00
 (1789026026.277423)  can0  601   [8]  40 6C 60 02 00 00 00 00
 (1789026026.277730)  can0  581   [8]  43 6C 60 02 E9 FD FF FF
 (1789026026.279422)  can0  601   [8]  40 6C 60 03 00 00 00 00
 (1789026026.279727)  can0  581   [8]  43 6C 60 03 00 00 ED FD
 (1789026026.290762)  can0  181   [8]  00 00 00 FE 21 14 21 14
 (1789026026.340770)  can0  181   [8]  00 00 5E FE 21 14 21 14
 (1789026026.387107)  can0  701   [1]  05
 (1789026026.390780)  can0  181   [8]  00 00 BC FE 21 14 21 14
 (1789026026.440793)  can0  181   [8]  00 00 1F FF 21 14 21 14
 (1789026026.490806)  can0  181   [8]  00 00 73 FF 21 14 21 14
 (1789026026.540810)  can0  181   [8]  00 00 D9 FF 21 14 21 14
 (1789026026.590830)  can0  181   [8]  00 00 16 00 21 14 21 14
 (1789026026.636664)  can0  701   [1]  05
 (1789026026.640836)  can0  181   [8]  00 00 F6 FF 21 14 21 14
 (1789026026.690846)  can0  181   [8]  00 00 FB FF 21 14 21 14
 (1789026026.740855)  can0  181   [8]  00 00 B3 FF 21 14 21 14
 (1789026026.790869)  can0  181   [8]  00 00 07 FF 21 14 21 14
 (1789026026.840877)  can0  181   [8]  00 00 83 FE 21 14 21 14
 (1789026026.886157)  can0  701   [1]  05
 (1789026026.890886)  can0  181   [8]  00 00 08 FE 21 14 21 14
 (1789026026.940893)  can0  181   [8]  00 00 A2 FD 21 14 21 14
 (1789026026.990911)  can0  181   [8]  00 00 C0 FD 21 14 21 14
 (1789026027.040918)  can0  181   [8]  00 00 14 FE 21 14 21 14
 (1789026027.090931)  can0  181   [8]  00 00 6C FE 21 14 21 14
 (1789026027.135766)  can0  701   [1]  05
 (1789026027.140940)  can0  181   [8]  00 00 C2 FE 21 14 21 14
 (1789026027.190950)  can0  181   [8]  00 00 1F FF 21 14 21 14
 (1789026027.240961)  can0  181   [8]  00 00 6C FF 21 14 21 14
 (1789026027.280429)  can0  601   [8]  40 41 60 00 00 00 00 00
 (1789026027.280742)  can0  581   [8]  43 41 60 00 21 14 21 14
 (1789026027.282424)  can0  601   [8]  40 6C 60 01 00 00 00 00
 (1789026027.282743)  can0  581   [8]  43 6C 60 01 00 00 00 00
 (1789026027.284424)  can0  601   [8]  40 6C 60 02 00 00 00 00
 (1789026027.284737)  can0  581   [8]  43 6C 60 02 DA FF FF FF
 (1789026027.286422)  can0  601   [8]  40 6C 60 03 00 00 00 00
 (1789026027.286734)  can0  581   [8]  43 6C 60 03 00 00 E1 FF
 (1789026027.290968)  can0  181   [8]  00 00 EF FF 21 14 21 14
 (1789026027.340982)  can0  181   [8]  00 00 00 00 21 14 21 14
 (1789026027.385262)  can0  701   [1]  05
 (1789026027.390990)  can0  181   [8]  00 00 72 FF 21 14 21 14
 (1789026027.440998)  can0  181   [8]  00 00 9E FE 21 14 21 14
 (1789026027.491009)  can0  181   [8]  00 00 95 FD 21 14 21 14
 (1789026027.541023)  can0  181   [8]  00 00 2F FD 21 14 21 14
 (1789026027.591031)  can0  181   [8]  00 00 6B FD 21 14 21 14
 (1789026027.634944)  can0  701   [1]  05
 (1789026027.641041)  can0  181   [8]  00 00 C9 FD 21 14 21 14
 (1789026027.691053)  can0  181   [8]  01 00 28 FE 21 14 21 14
 (1789026027.741062)  can0  181   [8]  00 00 85 FE 21 14 21 14
 (1789026027.791073)  can0  181   [8]  00 00 E5 FE 21 14 21 14
 (1789026027.841086)  can0  181   [8]  00 00 3E FF 21 14 21 14
 (1789026027.884306)  can0  701   [1]  05
 (1789026027.891095)  can0  181   [8]  00 00 B4 FF 21 14 21 14
 (1789026027.941106)  can0  181   [8]  00 00 1E 00 21 14 21 14
 (1789026027.991114)  can0  181   [8]  00 00 D9 FF 21 14 21 14
 (1789026028.041128)  can0  181   [8]  00 00 24 FF 21 14 21 14
 (1789026028.091135)  can0  181   [8]  00 00 EB FD 21 14 21 14
 (1789026028.133806)  can0  701   [1]  05
 (1789026028.141151)  can0  181   [8]  00 00 2D FD 21 14 21 14
 (1789026028.191158)  can0  181   [8]  00 00 3C FD 21 14 21 14
 (1789026028.241168)  can0  181   [8]  00 00 98 FD 21 14 21 14
 (1789026028.287426)  can0  601   [8]  40 41 60 00 00 00 00 00
 (1789026028.287747)  can0  581   [8]  43 41 60 00 21 14 21 14
