 (1789376283.179550)  can0  601   [8]  40 00 20 00 00 00 00 00
 (1789376283.179865)  can0  581   [8]  4B 00 20 00 00 00 00 00
 (1789376283.181493)  can0  601   [8]  40 17 10 00 00 00 00 00
 (1789376283.181858)  can0  581   [8]  4B 17 10 00 00 00 00 00
 (1789376283.183491)  can0  601   [8]  2B 17 10 00 F4 01 00 00
 (1789376283.183851)  can0  581   [8]  60 17 10 00 00 00 00 00
 (1789376283.185488)  can0  601   [8]  40 17 10 00 00 00 00 00
 (1789376283.185846)  can0  581   [8]  4B 17 10 00 F4 01 00 00
 (1789376283.433296)  can0  701   [1]  7F
 (1789376283.435505)  can0  601   [8]  40 00 18 01 00 00 00 00
 (1789376283.435854)  can0  581   [8]  43 00 18 01 81 01 00 00
 (1789376283.437495)  can0  601   [8]  40 00 18 02 00 00 00 00
 (1789376283.437847)  can0  581   [8]  4F 00 18 02 FF 00 00 00
 (1789376283.439490)  can0  601   [8]  40 00 18 05 00 00 00 00
 (1789376283.439844)  can0  581   [8]  4B 00 18 05 64 00 00 00
 (1789376283.441492)  can0  601   [8]  40 00 1A 00 00 00 00 00
 (1789376283.441843)  can0  581   [8]  4F 00 1A 00 02 00 00 00
 (1789376283.443489)  can0  601   [8]  40 00 1A 01 00 00 00 00
 (1789376283.443829)  can0  581   [8]  43 00 1A 01 20 00 41 60
 (1789376283.445494)  can0  601   [8]  40 00 1A 02 00 00 00 00
 (1789376283.445825)  can0  581   [8]  43 00 1A 02 20 03 6C 60
 (1789376283.447492)  can0  601   [8]  40 60 60 00 00 00 00 00
 (1789376283.447826)  can0  581   [8]  4F 60 60 00 03 00 00 00
 (1789376283.449493)  can0  601   [8]  40 61 60 00 00 00 00 00
 (1789376283.449819)  can0  581   [8]  4F 61 60 00 03 00 00 00
 (1789376283.451490)  can0  601   [8]  40 FF 60 01 00 00 00 00
 (1789376283.451817)  can0  581   [8]  43 FF 60 01 00 00 00 00
 (1789376283.453492)  can0  601   [8]  40 FF 60 02 00 00 00 00
 (1789376283.453815)  can0  581   [8]  43 FF 60 02 00 00 00 00
 (1789376283.455492)  can0  601   [8]  40 3F 60 00 00 00 00 00
 (1789376283.455810)  can0  581   [8]  43 3F 60 00 00 00 00 00
 (1789376283.457493)  can0  601   [8]  40 6C 60 01 00 00 00 00
 (1789376283.457803)  can0  581   [8]  43 6C 60 01 00 00 00 00
 (1789376283.459487)  can0  601   [8]  40 6C 60 02 00 00 00 00
 (1789376283.459796)  can0  581   [8]  43 6C 60 02 00 00 00 00
 (1789376283.461491)  can0  601   [8]  40 6C 60 03 00 00 00 00
 (1789376283.461852)  can0  581   [8]  43 6C 60 03 00 00 00 00
 (1789376283.463495)  can0  601   [8]  40 0F 20 00 00 00 00 00
 (1789376283.463793)  can0  581   [8]  4B 0F 20 00 01 00 00 00
 (1789376283.465497)  can0  601   [8]  23 FF 60 03 00 00 00 00
 (1789376283.465853)  can0  581   [8]  60 FF 60 03 00 00 00 00
 (1789376283.467490)  can0  601   [8]  40 FF 60 03 00 00 00 00
 (1789376283.467846)  can0  581   [8]  43 FF 60 03 00 00 00 00
 (1789376283.469493)  can0  601   [8]  23 FF 60 03 00 00 00 00
 (1789376283.469846)  can0  581   [8]  60 FF 60 03 00 00 00 00
 (1789376283.471489)  can0  601   [8]  40 FF 60 03 00 00 00 00
 (1789376283.471837)  can0  581   [8]  43 FF 60 03 00 00 00 00
 (1789376283.473385)  can0  000   [2]  01 01
 (1789376283.473708)  can0  181   [8]  00 14 00 14 00 00 00 00
 (1789376283.473807)  can0  281   [0] 
 (1789376283.473907)  can0  381   [0] 
 (1789376283.474005)  can0  481   [0] 
 (1789376283.523719)  can0  181   [8]  00 14 00 14 00 00 00 00
 (1789376283.573735)  can0  181   [8]  00 14 00 14 00 00 00 00
 (1789376283.623747)  can0  181   [8]  00 14 00 14 00 00 00 00
 (1789376283.673758)  can0  181   [8]  00 14 00 14 00 00 00 00
 (1789376283.682861)  can0  701   [1]  05
 (1789376283.684495)  can0  601   [8]  2F 60 60 00 03 00 00 00
 (1789376283.684864)  can0  581   [8]  60 60 60 00 00 00 00 00
 (1789376283.686491)  can0  601   [8]  40 61 60 00 00 00 00 00
 (1789376283.686794)  can0  581   [8]  4F 61 60 00 03 00 00 00
 (1789376283.688505)  can0  601   [8]  2B 40 60 00 06 00 00 00
 (1789376283.688796)  can0  581   [8]  60 40 60 00 00 00 00 00
 (1789376283.723771)  can0  181   [8]  21 14 21 14 00 00 00 00
 (1789376283.725496)  can0  601   [8]  40 6C 60 01 00 00 00 00
 (1789376283.725826)  can0  581   [8]  43 6C 60 01 00 00 00 00
 (1789376283.727489)  can0  601   [8]  40 6C 60 02 00 00 00 00
 (1789376283.727823)  can0  581   [8]  43 6C 60 02 00 00 00 00
 (1789376283.729489)  can0  601   [8]  40 6C 60 03 00 00 00 00
 (1789376283.729817)  can0  581   [8]  43 6C 60 03 00 00 00 00
 (1789376283.731496)  can0  601   [8]  2B 40 60 00 07 00 00 00
 (1789376283.731821)  can0  581   [8]  60 40 60 00 00 00 00 00
 (1789376283.773776)  can0  181   [8]  23 14 23 14 00 00 00 00
 (1789376283.775493)  can0  601   [8]  40 6C 60 01 00 00 00 00
 (1789376283.775833)  can0  581   [8]  43 6C 60 01 00 00 00 00
 (1789376283.777487)  can0  601   [8]  40 6C 60 02 00 00 00 00
 (1789376283.777828)  can0  581   [8]  43 6C 60 02 00 00 00 00
 (1789376283.779489)  can0  601   [8]  40 6C 60 03 00 00 00 00
 (1789376283.779823)  can0  581   [8]  43 6C 60 03 00 00 00 00
 (1789376283.781495)  can0  601   [8]  2B 40 60 00 0F 00 00 00
 (1789376283.781826)  can0  581   [8]  60 40 60 00 00 00 00 00
 (1789376283.823734)  can0  181   [8]  27 14 27 14 00 00 00 00
 (1789376283.825496)  can0  601   [8]  40 6C 60 01 00 00 00 00
 (1789376283.825845)  can0  581   [8]  43 6C 60 01 00 00 00 00
 (1789376283.827487)  can0  601   [8]  40 6C 60 02 00 00 00 00
 (1789376283.827841)  can0  581   [8]  43 6C 60 02 00 00 00 00
 (1789376283.829489)  can0  601   [8]  40 6C 60 03 00 00 00 00
 (1789376283.829838)  can0  581   [8]  43 6C 60 03 00 00 00 00
 (1789376283.831496)  can0  601   [8]  2B 00 20 00 E8 03 00 00
 (1789376283.831842)  can0  581   [8]  60 00 20 00 00 00 00 00
 (1789376283.833491)  can0  601   [8]  40 00 20 00 00 00 00 00
 (1789376283.833829)  can0  581   [8]  4B 00 20 00 E8 03 00 00
 (1789376283.835499)  can0  601   [8]  23 FF 60 03 00 00 05 00
 (1789376283.835830)  can0  581   [8]  60 FF 60 03 00 00 00 00
 (1789376283.837488)  can0  601   [8]  40 FF 60 03 00 00 00 00
 (1789376283.837822)  can0  581   [8]  43 FF 60 03 00 00 05 00
 (1789376283.873734)  can0  181   [8]  27 14 27 44 00 00 0C 00
 (1789376283.923695)  can0  181   [8]  27 14 27 44 00 00 2C 00
 (1789376283.932361)  can0  701   [1]  05
 (1789376283.973701)  can0  181   [8]  27 14 27 44 00 00 32 00
 (1789376284.023657)  can0  181   [8]  27 14 27 44 00 00 36 00
 (1789376284.036499)  can0  601   [8]  40 6C 60 01 00 00 00 00
 (1789376284.036750)  can0  581   [8]  43 6C 60 01 00 00 00 00
 (1789376284.038490)  can0  601   [8]  40 6C 60 02 00 00 00 00
 (1789376284.038801)  can0  581   [8]  43 6C 60 02 32 00 00 00
 (1789376284.051490)  can0  601   [8]  40 6C 60 02 00 00 00 00
 (1789376284.051836)  can0  581   [8]  43 6C 60 02 30 00 00 00
 (1789376284.073663)  can0  181   [8]  27 14 27 44 00 00 30 00
 (1789376284.108491)  can0  601   [8]  40 6C 60 02 00 00 00 00
 (1789376284.108834)  can0  581   [8]  43 6C 60 02 35 00 00 00
 (1789376284.123621)  can0  181   [8]  27 14 27 44 00 00 34 00
 (1789376284.165497)  can0  601   [8]  40 6C 60 02 00 00 00 00
 (1789376284.165834)  can0  581   [8]  43 6C 60 02 2C 00 00 00
 (1789376284.173624)  can0  181   [8]  27 14 27 44 00 00 2C 00
 (1789376284.181929)  can0  701   [1]  05
 (1789376284.222491)  can0  601   [8]  40 6C 60 02 00 00 00 00
 (1789376284.222831)  can0  581   [8]  43 6C 60 02 33 00 00 00
 (1789376284.223527)  can0  181   [8]  27 14 27 44 00 00 33 00
 (1789376284.273592)  can0  181   [8]  27 14 27 44 00 00 30 00
 (1789376284.278490)  can0  601   [8]  40 6C 60 02 00 00 00 00
 (1789376284.278832)  can0  581   [8]  43 6C 60 02 2F 00 00 00
 (1789376284.323549)  can0  181   [8]  27 14 27 44 00 00 2E 00
 (1789376284.334490)  can0  601   [8]  40 6C 60 02 00 00 00 00
 (1789376284.334830)  can0  581   [8]  43 6C 60 02 30 00 00 00
 (1789376284.373553)  can0  181   [8]  27 14 27 44 00 00 31 00
 (1789376284.391488)  can0  601   [8]  40 6C 60 02 00 00 00 00
 (1789376284.391829)  can0  581   [8]  43 6C 60 02 34 00 00 00
 (1789376284.423518)  can0  181   [8]  27 14 27 44 00 00 35 00
 (1789376284.431432)  can0  701   [1]  05
 (1789376284.448489)  can0  601   [8]  40 6C 60 02 00 00 00 00
 (1789376284.448824)  can0  581   [8]  43 6C 60 02 32 00 00 00
 (1789376284.473516)  can0  181   [8]  27 14 27 44 00 00 31 00
 (1789376284.505489)  can0  601   [8]  40 6C 60 02 00 00 00 00
 (1789376284.505820)  can0  581   [8]  43 6C 60 02 34 00 00 00
 (1789376284.523473)  can0  181   [8]  27 14 27 44 00 00 34 00
 (1789376284.562488)  can0  601   [8]  40 6C 60 02 00 00 00 00
 (1789376284.562820)  can0  581   [8]  43 6C 60 02 2E 00 00 00
 (1789376284.573421)  can0  181   [8]  27 14 27 44 00 00 2E 00
 (1789376284.619487)  can0  601   [8]  40 6C 60 02 00 00 00 00
 (1789376284.619816)  can0  581   [8]  43 6C 60 02 33 00 00 00
 (1789376284.623367)  can0  181   [8]  27 14 27 44 00 00 33 00
 (1789376284.673320)  can0  181   [8]  27 14 27 44 00 00 31 00
 (1789376284.676486)  can0  601   [8]  40 6C 60 02 00 00 00 00
 (1789376284.676755)  can0  581   [8]  43 6C 60 02 30 00 00 00
 (1789376284.681002)  can0  701   [1]  05
 (1789376284.723273)  can0  181   [8]  27 14 27 44 00 00 2E 00
 (1789376284.733488)  can0  601   [8]  40 6C 60 02 00 00 00 00
 (1789376284.733754)  can0  581   [8]  43 6C 60 02 2F 00 00 00
 (1789376284.773221)  can0  181   [8]  27 14 27 44 00 00 31 00
 (1789376284.790489)  can0  601   [8]  40 6C 60 02 00 00 00 00
 (1789376284.790810)  can0  581   [8]  43 6C 60 02 34 00 00 00
 (1789376284.823177)  can0  181   [8]  27 14 27 44 00 00 34 00
 (1789376284.847488)  can0  601   [8]  40 6C 60 02 00 00 00 00
 (1789376284.847807)  can0  581   [8]  43 6C 60 02 31 00 00 00
 (1789376284.873128)  can0  181   [8]  27 14 27 44 00 00 30 00
 (1789376284.904489)  can0  601   [8]  40 6C 60 02 00 00 00 00
 (1789376284.904806)  can0  581   [8]  43 6C 60 02 32 00 00 00
 (1789376284.923076)  can0  181   [8]  27 14 27 44 00 00 33 00
 (1789376284.930504)  can0  701   [1]  05
 (1789376284.961489)  can0  601   [8]  40 6C 60 02 00 00 00 00
 (1789376284.961801)  can0  581   [8]  43 6C 60 02 2E 00 00 00
 (1789376284.973024)  can0  181   [8]  27 14 27 44 00 00 2D 00
 (1789376285.018489)  can0  601   [8]  40 6C 60 02 00 00 00 00
 (1789376285.018799)  can0  581   [8]  43 6C 60 02 33 00 00 00
 (1789376285.022976)  can0  181   [8]  27 14 27 44 00 00 33 00
 (1789376285.072927)  can0  181   [8]  27 14 27 44 00 00 33 00
 (1789376285.075491)  can0  601   [8]  40 6C 60 02 00 00 00 00
 (1789376285.075798)  can0  581   [8]  43 6C 60 02 32 00 00 00
 (1789376285.122878)  can0  181   [8]  27 14 27 44 00 00 2D 00
 (1789376285.132487)  can0  601   [8]  40 6C 60 02 00 00 00 00
 (1789376285.132796)  can0  581   [8]  43 6C 60 02 2E 00 00 00
 (1789376285.172829)  can0  181   [8]  27 14 27 44 00 00 31 00
 (1789376285.180072)  can0  701   [1]  05
 (1789376285.189488)  can0  601   [8]  40 6C 60 02 00 00 00 00
 (1789376285.189794)  can0  581   [8]  43 6C 60 02 33 00 00 00
 (1789376285.222781)  can0  181   [8]  27 14 27 44 00 00 36 00
 (1789376285.246488)  can0  601   [8]  40 6C 60 02 00 00 00 00
 (1789376285.246734)  can0  581   [8]  43 6C 60 02 33 00 00 00
 (1789376285.272732)  can0  181   [8]  27 14 27 44 00 00 2F 00
 (1789376285.303487)  can0  601   [8]  40 6C 60 02 00 00 00 00
 (1789376285.303735)  can0  581   [8]  43 6C 60 02 32 00 00 00
 (1789376285.322683)  can0  181   [8]  27 14 27 44 00 00 34 00
 (1789376285.360487)  can0  601   [8]  40 6C 60 02 00 00 00 00
 (1789376285.360794)  can0  581   [8]  43 6C 60 02 2E 00 00 00
 (1789376285.372632)  can0  181   [8]  27 14 27 44 00 00 2E 00
 (1789376285.416490)  can0  601   [8]  40 6C 60 02 00 00 00 00
 (1789376285.416737)  can0  581   [8]  43 6C 60 02 33 00 00 00
 (1789376285.422582)  can0  181   [8]  27 14 27 44 00 00 33 00
 (1789376285.429576)  can0  701   [1]  05
 (1789376285.472535)  can0  181   [8]  27 14 27 44 00 00 34 00
 (1789376285.472854)  can0  601   [8]  40 6C 60 02 00 00 00 00
 (1789376285.473159)  can0  581   [8]  43 6C 60 02 34 00 00 00
 (1789376285.522489)  can0  181   [8]  27 14 27 44 00 00 2C 00
 (1789376285.529489)  can0  601   [8]  40 6C 60 02 00 00 00 00
 (1789376285.529792)  can0  581   [8]  43 6C 60 02 2D 00 00 00
 (1789376285.572442)  can0  181   [8]  27 14 27 44 00 00 30 00
 (1789376285.586490)  can0  601   [8]  40 6C 60 02 00 00 00 00
 (1789376285.586736)  can0  581   [8]  43 6C 60 02 32 00 00 00
 (1789376285.622391)  can0  181   [8]  27 14 27 44 00 00 35 00
 (1789376285.643488)  can0  601   [8]  40 6C 60 02 00 00 00 00
 (1789376285.643792)  can0  581   [8]  43 6C 60 02 34 00 00 00
 (1789376285.672339)  can0  181   [8]  27 14 27 44 00 00 2F 00
 (1789376285.679144)  can0  701   [1]  05
 (1789376285.700490)  can0  601   [8]  40 6C 60 02 00 00 00 00
 (1789376285.700838)  can0  581   [8]  43 6C 60 02 30 00 00 00
 (1789376285.722289)  can0  181   [8]  27 14 27 44 00 00 33 00
 (1789376285.757490)  can0  601   [8]  40 6C 60 02 00 00 00 00
 (1789376285.757834)  can0  581   [8]  43 6C 60 02 2F 00 00 00
 (1789376285.772237)  can0  181   [8]  27 14 27 44 00 00 2D 00
 (1789376285.814491)  can0  601   [8]  40 6C 60 02 00 00 00 00
 (1789376285.814834)  can0  581   [8]  43 6C 60 02 31 00 00 00
 (1789376285.822191)  can0  181   [8]  27 14 27 44 00 00 32 00
 (1789376285.871490)  can0  601   [8]  40 6C 60 02 00 00 00 00
 (1789376285.871831)  can0  581   [8]  43 6C 60 02 34 00 00 00
 (1789376285.872143)  can0  181   [8]  27 14 27 44 00 00 34 00
 (1789376285.922092)  can0  181   [8]  27 14 27 44 00 00 2D 00
 (1789376285.928489)  can0  601   [8]  40 6C 60 02 00 00 00 00
 (1789376285.928831)  can0  581   [8]  43 6C 60 02 2D 00 00 00
 (1789376285.928946)  can0  701   [1]  05
 (1789376285.972047)  can0  181   [8]  27 14 27 44 00 00 30 00
 (1789376285.985490)  can0  601   [8]  40 6C 60 02 00 00 00 00
 (1789376285.985829)  can0  581   [8]  43 6C 60 02 31 00 00 00
 (1789376286.021997)  can0  181   [8]  27 14 27 44 00 00 35 00
 (1789376286.042490)  can0  601   [8]  40 6C 60 02 00 00 00 00
 (1789376286.042824)  can0  581   [8]  43 6C 60 02 36 00 00 00
 (1789376286.071945)  can0  181   [8]  27 14 27 44 00 00 31 00
 (1789376286.099489)  can0  601   [8]  40 6C 60 02 00 00 00 00
 (1789376286.099822)  can0  581   [8]  43 6C 60 02 30 00 00 00
 (1789376286.121896)  can0  181   [8]  27 14 27 44 00 00 33 00
 (1789376286.156489)  can0  601   [8]  40 6C 60 02 00 00 00 00
 (1789376286.156761)  can0  581   [8]  43 6C 60 02 2F 00 00 00
 (1789376286.171845)  can0  181   [8]  27 14 27 44 00 00 2D 00
 (1789376286.178217)  can0  701   [1]  05
 (1789376286.213489)  can0  601   [8]  40 6C 60 02 00 00 00 00
 (1789376286.213818)  can0  581   [8]  43 6C 60 02 31 00 00 00
 (1789376286.221797)  can0  181   [8]  27 14 27 44 00 00 32 00
 (1789376286.270493)  can0  601   [8]  40 6C 60 02 00 00 00 00
 (1789376286.270814)  can0  581   [8]  43 6C 60 02 34 00 00 00
 (1789376286.271747)  can0  181   [8]  27 14 27 44 00 00 33 00
 (1789376286.321700)  can0  181   [8]  27 14 27 44 00 00 2D 00
 (1789376286.326490)  can0  601   [8]  40 6C 60 02 00 00 00 00
 (1789376286.326815)  can0  581   [8]  43 6C 60 02 2D 00 00 00
 (1789376286.371654)  can0  181   [8]  27 14 27 44 00 00 30 00
 (1789376286.382489)  can0  601   [8]  40 6C 60 02 00 00 00 00
 (1789376286.382814)  can0  581   [8]  43 6C 60 02 31 00 00 00
 (1789376286.421602)  can0  181   [8]  27 14 27 44 00 00 35 00
 (1789376286.427721)  can0  701   [1]  05
 (1789376286.438488)  can0  601   [8]  40 6C 60 02 00 00 00 00
 (1789376286.438812)  can0  581   [8]  43 6C 60 02 36 00 00 00
 (1789376286.471556)  can0  181   [8]  27 14 27 44 00 00 30 00
 (1789376286.495489)  can0  601   [8]  40 6C 60 02 00 00 00 00
 (1789376286.495811)  can0  581   [8]  43 6C 60 02 2F 00 00 00
 (1789376286.521500)  can0  181   [8]  27 14 27 44 00 00 33 00
 (1789376286.552490)  can0  601   [8]  40 6C 60 02 00 00 00 00
 (1789376286.552805)  can0  581   [8]  43 6C 60 02 32 00 00 00
 (1789376286.571454)  can0  181   [8]  27 14 27 44 00 00 2D 00
 (1789376286.609490)  can0  601   [8]  40 6C 60 02 00 00 00 00
 (1789376286.609748)  can0  581   [8]  43 6C 60 02 2E 00 00 00
 (1789376286.621408)  can0  181   [8]  27 14 27 44 00 00 30 00
 (1789376286.665489)  can0  601   [8]  40 6C 60 02 00 00 00 00
 (1789376286.665807)  can0  581   [8]  43 6C 60 02 34 00 00 00
 (1789376286.671355)  can0  181   [8]  27 14 27 44 00 00 34 00
 (1789376286.677290)  can0  701   [1]  05
 (1789376286.721307)  can0  181   [8]  27 14 27 44 00 00 2D 00
 (1789376286.721543)  can0  601   [8]  40 6C 60 02 00 00 00 00
 (1789376286.721870)  can0  581   [8]  43 6C 60 02 2D 00 00 00
 (1789376286.771259)  can0  181   [8]  27 14 27 44 00 00 30 00
 (1789376286.778491)  can0  601   [8]  40 6C 60 02 00 00 00 00
 (1789376286.778802)  can0  581   [8]  43 6C 60 02 30 00 00 00
 (1789376286.821210)  can0  181   [8]  27 14 27 44 00 00 35 00
 (1789376286.835489)  can0  601   [8]  40 6C 60 02 00 00 00 00
 (1789376286.835801)  can0  581   [8]  43 6C 60 02 37 00 00 00
 (1789376286.871158)  can0  181   [8]  27 14 27 44 00 00 33 00
 (1789376286.892491)  can0  601   [8]  40 6C 60 02 00 00 00 00
 (1789376286.892799)  can0  581   [8]  43 6C 60 02 2F 00 00 00
 (1789376286.921114)  can0  181   [8]  27 14 27 44 00 00 30 00
 (1789376286.926795)  can0  701   [1]  05
 (1789376286.948490)  can0  601   [8]  40 6C 60 02 00 00 00 00
 (1789376286.948799)  can0  581   [8]  43 6C 60 02 34 00 00 00
 (1789376286.971064)  can0  181   [8]  27 14 27 44 00 00 30 00
 (1789376287.005489)  can0  601   [8]  40 6C 60 02 00 00 00 00
 (1789376287.005797)  can0  581   [8]  43 6C 60 02 2D 00 00 00
 (1789376287.021014)  can0  181   [8]  27 14 27 44 00 00 30 00
 (1789376287.062488)  can0  601   [8]  40 6C 60 02 00 00 00 00
 (1789376287.062796)  can0  581   [8]  43 6C 60 02 33 00 00 00
 (1789376287.070961)  can0  181   [8]  27 14 27 44 00 00 33 00
 (1789376287.119489)  can0  601   [8]  40 6C 60 02 00 00 00 00
 (1789376287.119793)  can0  581   [8]  43 6C 60 02 2D 00 00 00
 (1789376287.120888)  can0  181   [8]  27 14 27 44 00 00 2D 00
 (1789376287.170867)  can0  181   [8]  27 14 27 44 00 00 30 00
 (1789376287.175488)  can0  601   [8]  40 6C 60 02 00 00 00 00
 (1789376287.175791)  can0  581   [8]  43 6C 60 02 30 00 00 00
 (1789376287.176361)  can0  701   [1]  05
 (1789376287.220819)  can0  181   [8]  27 14 27 44 00 00 34 00
 (1789376287.231490)  can0  601   [8]  40 6C 60 02 00 00 00 00
 (1789376287.231791)  can0  581   [8]  43 6C 60 02 35 00 00 00
 (1789376287.270766)  can0  181   [8]  27 14 27 44 00 00 34 00
 (1789376287.288491)  can0  601   [8]  40 6C 60 02 00 00 00 00
 (1789376287.288795)  can0  581   [8]  43 6C 60 02 30 00 00 00
 (1789376287.320720)  can0  181   [8]  27 14 27 44 00 00 30 00
 (1789376287.345491)  can0  601   [8]  40 6C 60 02 00 00 00 00
 (1789376287.345795)  can0  581   [8]  43 6C 60 02 34 00 00 00
 (1789376287.370670)  can0  181   [8]  27 14 27 44 00 00 30 00
 (1789376287.402493)  can0  601   [8]  40 6C 60 02 00 00 00 00
 (1789376287.402793)  can0  581   [8]  43 6C 60 02 2B 00 00 00
 (1789376287.420619)  can0  181   [8]  27 14 27 44 00 00 2F 00
 (1789376287.425864)  can0  701   [1]  05
 (1789376287.458490)  can0  601   [8]  40 6C 60 02 00 00 00 00
 (1789376287.458792)  can0  581   [8]  43 6C 60 02 33 00 00 00
 (1789376287.470570)  can0  181   [8]  27 14 27 44 00 00 34 00
 (1789376287.514490)  can0  601   [8]  40 6C 60 02 00 00 00 00
 (1789376287.514796)  can0  581   [8]  43 6C 60 02 2C 00 00 00
 (1789376287.520521)  can0  181   [8]  27 14 27 44 00 00 2C 00
 (1789376287.570476)  can0  181   [8]  27 14 27 44 00 00 30 00
 (1789376287.570736)  can0  601   [8]  40 6C 60 02 00 00 00 00
 (1789376287.571099)  can0  581   [8]  43 6C 60 02 30 00 00 00
 (1789376287.620423)  can0  181   [8]  27 14 27 44 00 00 33 00
 (1789376287.627491)  can0  601   [8]  40 6C 60 02 00 00 00 00
 (1789376287.627795)  can0  581   [8]  43 6C 60 02 34 00 00 00
 (1789376287.670375)  can0  181   [8]  27 14 27 44 00 00 35 00
 (1789376287.675433)  can0  701   [1]  05
 (1789376287.684489)  can0  601   [8]  40 6C 60 02 00 00 00 00
 (1789376287.684793)  can0  581   [8]  43 6C 60 02 32 00 00 00
 (1789376287.720323)  can0  181   [8]  27 14 27 44 00 00 32 00
 (1789376287.741489)  can0  601   [8]  40 6C 60 02 00 00 00 00
 (1789376287.741839)  can0  581   [8]  43 6C 60 02 35 00 00 00
 (1789376287.770275)  can0  181   [8]  27 14 27 44 00 00 32 00
 (1789376287.798489)  can0  601   [8]  40 6C 60 02 00 00 00 00
 (1789376287.798840)  can0  581   [8]  43 6C 60 02 2C 00 00 00
 (1789376287.820224)  can0  181   [8]  27 14 27 44 00 00 2F 00
 (1789376287.855491)  can0  601   [8]  40 6C 60 02 00 00 00 00
 (1789376287.855836)  can0  581   [8]  43 6C 60 02 33 00 00 00
 (1789376287.870178)  can0  181   [8]  27 14 27 44 00 00 35 00
 (1789376287.912491)  can0  601   [8]  40 6C 60 02 00 00 00 00
 (1789376287.912831)  can0  581   [8]  43 6C 60 02 2E 00 00 00
 (1789376287.920129)  can0  181   [8]  27 14 27 44 00 00 2C 00
 (1789376287.924935)  can0  701   [1]  05
 (1789376287.968491)  can0  601   [8]  40 6C 60 02 00 00 00 00
 (1789376287.968833)  can0  581   [8]  43 6C 60 02 2F 00 00 00
 (1789376287.970076)  can0  181   [8]  27 14 27 44 00 00 2F 00
 (1789376288.020029)  can0  181   [8]  27 14 27 44 00 00 33 00
 (1789376288.024491)  can0  601   [8]  40 6C 60 02 00 00 00 00
 (1789376288.024831)  can0  581   [8]  43 6C 60 02 33 00 00 00
 (1789376288.069979)  can0  181   [8]  27 14 27 44 00 00 33 00
 (1789376288.080489)  can0  601   [8]  40 6C 60 02 00 00 00 00
 (1789376288.080832)  can0  581   [8]  43 6C 60 02 31 00 00 00
 (1789376288.119932)  can0  181   [8]  27 14 27 44 00 00 31 00
 (1789376288.137490)  can0  601   [8]  40 6C 60 02 00 00 00 00
 (1789376288.137832)  can0  581   [8]  43 6C 60 02 33 00 00 00
 (1789376288.169879)  can0  181   [8]  27 14 27 44 00 00 33 00
 (1789376288.174503)  can0  701   [1]  05
 (1789376288.194491)  can0  601   [8]  40 6C 60 02 00 00 00 00
 (1789376288.194826)  can0  581   [8]  43 6C 60 02 2D 00 00 00
 (1789376288.219832)  can0  181   [8]  27 14 27 44 00 00 2C 00
 (1789376288.251492)  can0  601   [8]  40 6C 60 02 00 00 00 00
 (1789376288.251825)  can0  581   [8]  43 6C 60 02 33 00 00 00
 (1789376288.269783)  can0  181   [8]  27 14 27 44 00 00 34 00
 (1789376288.308491)  can0  601   [8]  40 6C 60 02 00 00 00 00
 (1789376288.308821)  can0  581   [8]  43 6C 60 02 31 00 00 00
 (1789376288.319735)  can0  181   [8]  27 14 27 44 00 00 2E 00
 (1789376288.365491)  can0  601   [8]  40 6C 60 02 00 00 00 00
 (1789376288.365819)  can0  581   [8]  43 6C 60 02 2E 00 00 00
 (1789376288.369686)  can0  181   [8]  27 14 27 44 00 00 2E 00
 (1789376288.419636)  can0  181   [8]  27 14 27 44 00 00 32 00
 (1789376288.422491)  can0  601   [8]  40 6C 60 02 00 00 00 00
 (1789376288.422818)  can0  581   [8]  43 6C 60 02 32 00 00 00
 (1789376288.424010)  can0  701   [1]  05
 (1789376288.469590)  can0  181   [8]  27 14 27 44 00 00 34 00
 (1789376288.478489)  can0  601   [8]  40 6C 60 02 00 00 00 00
 (1789376288.478817)  can0  581   [8]  43 6C 60 02 33 00 00 00
 (1789376288.519537)  can0  181   [8]  27 14 27 44 00 00 32 00
 (1789376288.535488)  can0  601   [8]  40 6C 60 02 00 00 00 00
 (1789376288.535814)  can0  581   [8]  43 6C 60 02 32 00 00 00
 (1789376288.569489)  can0  181   [8]  27 14 27 44 00 00 34 00
 (1789376288.591488)  can0  601   [8]  40 6C 60 02 00 00 00 00
 (1789376288.591815)  can0  581   [8]  43 6C 60 02 30 00 00 00
 (1789376288.619436)  can0  181   [8]  27 14 27 44 00 00 2D 00
 (1789376288.648491)  can0  601   [8]  40 6C 60 02 00 00 00 00
 (1789376288.648809)  can0  581   [8]  43 6C 60 02 32 00 00 00
 (1789376288.669390)  can0  181   [8]  27 14 27 44 00 00 33 00
 (1789376288.673575)  can0  701   [1]  05
 (1789376288.705489)  can0  601   [8]  40 6C 60 02 00 00 00 00
 (1789376288.705808)  can0  581   [8]  43 6C 60 02 32 00 00 00
 (1789376288.719404)  can0  181   [8]  27 14 27 44 00 00 2F 00
 (1789376288.762491)  can0  601   [8]  40 6C 60 02 00 00 00 00
 (1789376288.762807)  can0  581   [8]  43 6C 60 02 2D 00 00 00
 (1789376288.769352)  can0  181   [8]  27 14 27 44 00 00 2E 00
 (1789376288.819306)  can0  181   [8]  27 14 27 44 00 00 32 00
 (1789376288.819544)  can0  601   [8]  40 6C 60 02 00 00 00 00
 (1789376288.819866)  can0  581   [8]  43 6C 60 02 32 00 00 00
 (1789376288.869253)  can0  181   [8]  27 14 27 44 00 00 33 00
 (1789376288.876490)  can0  601   [8]  40 6C 60 02 00 00 00 00
 (1789376288.876744)  can0  581   [8]  43 6C 60 02 32 00 00 00
 (1789376288.919204)  can0  181   [8]  27 14 27 44 00 00 31 00
 (1789376288.923144)  can0  701   [1]  05
 (1789376288.933488)  can0  601   [8]  40 6C 60 02 00 00 00 00
 (1789376288.933800)  can0  581   [8]  43 6C 60 02 31 00 00 00
 (1789376288.969158)  can0  181   [8]  27 14 27 44 00 00 34 00
 (1789376288.990491)  can0  601   [8]  40 6C 60 02 00 00 00 00
 (1789376288.990797)  can0  581   [8]  43 6C 60 02 2F 00 00 00
 (1789376289.019109)  can0  181   [8]  27 14 27 44 00 00 2C 00
 (1789376289.047491)  can0  601   [8]  40 6C 60 02 00 00 00 00
 (1789376289.047795)  can0  581   [8]  43 6C 60 02 32 00 00 00
 (1789376289.069061)  can0  181   [8]  27 14 27 44 00 00 34 00
 (1789376289.104490)  can0  601   [8]  40 6C 60 02 00 00 00 00
 (1789376289.104795)  can0  581   [8]  43 6C 60 02 34 00 00 00
 (1789376289.119013)  can0  181   [8]  27 14 27 44 00 00 30 00
 (1789376289.161492)  can0  601   [8]  40 6C 60 02 00 00 00 00
 (1789376289.161800)  can0  581   [8]  43 6C 60 02 2C 00 00 00
 (1789376289.168959)  can0  181   [8]  27 14 27 44 00 00 2D 00
 (1789376289.172649)  can0  701   [1]  05
 (1789376289.218490)  can0  601   [8]  40 6C 60 02 00 00 00 00
 (1789376289.218794)  can0  581   [8]  43 6C 60 02 32 00 00 00
 (1789376289.219030)  can0  181   [8]  27 14 27 44 00 00 32 00
 (1789376289.268861)  can0  181   [8]  27 14 27 44 00 00 36 00
 (1789376289.275491)  can0  601   [8]  40 6C 60 02 00 00 00 00
 (1789376289.275796)  can0  581   [8]  43 6C 60 02 35 00 00 00
 (1789376289.318812)  can0  181   [8]  27 14 27 44 00 00 2F 00
 (1789376289.332490)  can0  601   [8]  40 6C 60 02 00 00 00 00
 (1789376289.332795)  can0  581   [8]  43 6C 60 02 31 00 00 00
 (1789376289.368764)  can0  181   [8]  27 14 27 44 00 00 34 00
 (1789376289.389489)  can0  601   [8]  40 6C 60 02 00 00 00 00
 (1789376289.389793)  can0  581   [8]  43 6C 60 02 30 00 00 00
 (1789376289.418715)  can0  181   [8]  27 14 27 44 00 00 2D 00
 (1789376289.422216)  can0  701   [1]  05
 (1789376289.446489)  can0  601   [8]  40 6C 60 02 00 00 00 00
 (1789376289.446735)  can0  581   [8]  43 6C 60 02 32 00 00 00
 (1789376289.468665)  can0  181   [8]  27 14 27 44 00 00 33 00
 (1789376289.503490)  can0  601   [8]  40 6C 60 02 00 00 00 00
 (1789376289.503778)  can0  581   [8]  43 6C 60 02 36 00 00 00
 (1789376289.518616)  can0  181   [8]  27 14 27 44 00 00 33 00
 (1789376289.560490)  can0  601   [8]  40 6C 60 02 00 00 00 00
 (1789376289.560837)  can0  581   [8]  43 6C 60 02 2A 00 00 00
 (1789376289.568567)  can0  181   [8]  27 14 27 44 00 00 2C 00
 (1789376289.617489)  can0  601   [8]  40 6C 60 02 00 00 00 00
 (1789376289.617833)  can0  581   [8]  43 6C 60 02 31 00 00 00
 (1789376289.618515)  can0  181   [8]  27 14 27 44 00 00 31 00
 (1789376289.668471)  can0  181   [8]  27 14 27 44 00 00 36 00
 (1789376289.671721)  can0  701   [1]  05
 (1789376289.673489)  can0  601   [8]  40 6C 60 02 00 00 00 00
 (1789376289.673775)  can0  581   [8]  43 6C 60 02 36 00 00 00
 (1789376289.718421)  can0  181   [8]  27 14 27 44 00 00 2D 00
 (1789376289.729491)  can0  601   [8]  40 6C 60 02 00 00 00 00
 (1789376289.729831)  can0  581   [8]  43 6C 60 02 2E 00 00 00
 (1789376289.768372)  can0  181   [8]  27 14 27 44 00 00 34 00
 (1789376289.786490)  can0  601   [8]  40 6C 60 02 00 00 00 00
 (1789376289.786831)  can0  581   [8]  43 6C 60 02 31 00 00 00
 (1789376289.818323)  can0  181   [8]  27 14 27 44 00 00 2C 00
 (1789376289.843489)  can0  601   [8]  40 6C 60 02 00 00 00 00
 (1789376289.843769)  can0  581   [8]  43 6C 60 02 2F 00 00 00
 (1789376289.868271)  can0  181   [8]  27 14 27 44 00 00 33 00
 (1789376289.900490)  can0  601   [8]  40 6C 60 02 00 00 00 00
 (1789376289.900826)  can0  581   [8]  43 6C 60 02 35 00 00 00
 (1789376289.918224)  can0  181   [8]  27 14 27 44 00 00 34 00
 (1789376289.921287)  can0  701   [1]  05
 (1789376289.957491)  can0  601   [8]  40 6C 60 02 00 00 00 00
 (1789376289.957823)  can0  581   [8]  43 6C 60 02 2B 00 00 00
 (1789376289.968174)  can0  181   [8]  27 14 27 44 00 00 2C 00
 (1789376290.014492)  can0  601   [8]  40 6C 60 02 00 00 00 00
 (1789376290.014822)  can0  581   [8]  43 6C 60 02 30 00 00 00
 (1789376290.018129)  can0  181   [8]  27 14 27 44 00 00 30 00
 (1789376290.068078)  can0  181   [8]  27 14 27 44 00 00 36 00
 (1789376290.071491)  can0  601   [8]  40 6C 60 02 00 00 00 00
 (1789376290.071818)  can0  581   [8]  43 6C 60 02 37 00 00 00
 (1789376290.118030)  can0  181   [8]  27 14 27 44 00 00 30 00
 (1789376290.128493)  can0  601   [8]  40 6C 60 02 00 00 00 00
 (1789376290.128817)  can0  581   [8]  43 6C 60 02 2F 00 00 00
 (1789376290.167980)  can0  181   [8]  27 14 27 44 00 00 34 00
 (1789376290.170793)  can0  701   [1]  05
 (1789376290.185489)  can0  601   [8]  40 6C 60 02 00 00 00 00
 (1789376290.185813)  can0  581   [8]  43 6C 60 02 32 00 00 00
 (1789376290.217928)  can0  181   [8]  27 14 27 44 00 00 2C 00
 (1789376290.242489)  can0  601   [8]  40 6C 60 02 00 00 00 00
 (1789376290.242809)  can0  581   [8]  43 6C 60 02 2F 00 00 00
 (1789376290.267879)  can0  181   [8]  27 14 27 44 00 00 32 00
 (1789376290.299490)  can0  601   [8]  40 6C 60 02 00 00 00 00
 (1789376290.299809)  can0  581   [8]  43 6C 60 02 34 00 00 00
 (1789376290.317826)  can0  181   [8]  27 14 27 44 00 00 33 00
 (1789376290.356491)  can0  601   [8]  40 6C 60 02 00 00 00 00
 (1789376290.356811)  can0  581   [8]  43 6C 60 02 2C 00 00 00
 (1789376290.367780)  can0  181   [8]  27 14 27 44 00 00 2C 00
 (1789376290.413489)  can0  601   [8]  40 6C 60 02 00 00 00 00
 (1789376290.413745)  can0  581   [8]  43 6C 60 02 30 00 00 00
 (1789376290.417733)  can0  181   [8]  27 14 27 44 00 00 30 00
 (1789376290.420357)  can0  701   [1]  05
 (1789376290.467683)  can0  181   [8]  27 14 27 44 00 00 36 00
 (1789376290.470488)  can0  601   [8]  40 6C 60 02 00 00 00 00
 (1789376290.470802)  can0  581   [8]  43 6C 60 02 36 00 00 00
 (1789376290.517630)  can0  181   [8]  27 14 27 44 00 00 2F 00
 (1789376290.526500)  can0  601   [8]  40 6C 60 02 00 00 00 00
 (1789376290.526801)  can0  581   [8]  43 6C 60 02 2E 00 00 00
 (1789376290.567837)  can0  181   [8]  27 14 27 44 00 00 34 00
 (1789376290.583491)  can0  601   [8]  40 6C 60 02 00 00 00 00
 (1789376290.583800)  can0  581   [8]  43 6C 60 02 35 00 00 00
 (1789376290.617535)  can0  181   [8]  27 14 27 44 00 00 2B 00
 (1789376290.639493)  can0  601   [8]  40 6C 60 02 00 00 00 00
 (1789376290.639798)  can0  581   [8]  43 6C 60 02 2A 00 00 00
 (1789376290.667485)  can0  181   [8]  27 14 27 44 00 00 31 00
 (1789376290.669861)  can0  701   [1]  05
 (1789376290.696489)  can0  601   [8]  40 6C 60 02 00 00 00 00
 (1789376290.696795)  can0  581   [8]  43 6C 60 02 33 00 00 00
 (1789376290.717436)  can0  181   [8]  27 14 27 44 00 00 33 00
 (1789376290.753493)  can0  601   [8]  40 6C 60 02 00 00 00 00
 (1789376290.753794)  can0  581   [8]  43 6C 60 02 2D 00 00 00
 (1789376290.767386)  can0  181   [8]  27 14 27 44 00 00 2D 00
 (1789376290.810490)  can0  601   [8]  40 6C 60 02 00 00 00 00
 (1789376290.810794)  can0  581   [8]  43 6C 60 02 30 00 00 00
 (1789376290.817341)  can0  181   [8]  27 14 27 44 00 00 30 00
 (1789376290.867291)  can0  181   [8]  27 14 27 44 00 00 36 00
 (1789376290.867469)  can0  601   [8]  40 6C 60 02 00 00 00 00
 (1789376290.867852)  can0  581   [8]  43 6C 60 02 36 00 00 00
 (1789376290.917239)  can0  181   [8]  27 14 27 44 00 00 32 00
 (1789376290.919430)  can0  701   [1]  05
 (1789376290.924485)  can0  601   [8]  40 6C 60 02 00 00 00 00
 (1789376290.924793)  can0  581   [8]  43 6C 60 02 30 00 00 00
 (1789376290.967194)  can0  181   [8]  27 14 27 44 00 00 31 00
 (1789376290.981489)  can0  601   [8]  40 6C 60 02 00 00 00 00
 (1789376290.981792)  can0  581   [8]  43 6C 60 02 35 00 00 00
 (1789376291.017143)  can0  181   [8]  27 14 27 44 00 00 30 00
 (1789376291.038489)  can0  601   [8]  40 6C 60 02 00 00 00 00
 (1789376291.038792)  can0  581   [8]  43 6C 60 02 2B 00 00 00
 (1789376291.067090)  can0  181   [8]  27 14 27 44 00 00 31 00
 (1789376291.095490)  can0  601   [8]  40 6C 60 02 00 00 00 00
 (1789376291.095793)  can0  581   [8]  43 6C 60 02 33 00 00 00
 (1789376291.117042)  can0  181   [8]  27 14 27 44 00 00 33 00
 (1789376291.152489)  can0  601   [8]  40 6C 60 02 00 00 00 00
 (1789376291.152791)  can0  581   [8]  43 6C 60 02 2E 00 00 00
 (1789376291.166992)  can0  181   [8]  27 14 27 44 00 00 2D 00
 (1789376291.168935)  can0  701   [1]  05
 (1789376291.209489)  can0  601   [8]  40 6C 60 02 00 00 00 00
 (1789376291.209838)  can0  581   [8]  43 6C 60 02 30 00 00 00
 (1789376291.216949)  can0  181   [8]  27 14 27 44 00 00 30 00
 (1789376291.266490)  can0  601   [8]  40 6C 60 02 00 00 00 00
 (1789376291.266776)  can0  581   [8]  43 6C 60 02 35 00 00 00
 (1789376291.267014)  can0  181   [8]  27 14 27 44 00 00 35 00
 (1789376291.316912)  can0  181   [8]  27 14 27 44 00 00 32 00
 (1789376291.323489)  can0  601   [8]  40 6C 60 02 00 00 00 00
 (1789376291.323832)  can0  581   [8]  43 6C 60 02 31 00 00 00
 (1789376291.366859)  can0  181   [8]  27 14 27 44 00 00 30 00
 (1789376291.380489)  can0  601   [8]  40 6C 60 02 00 00 00 00
 (1789376291.380831)  can0  581   [8]  43 6C 60 02 33 00 00 00
 (1789376291.416811)  can0  181   [8]  27 14 27 44 00 00 2F 00
 (1789376291.418502)  can0  701   [1]  05
 (1789376291.437490)  can0  601   [8]  40 6C 60 02 00 00 00 00
 (1789376291.437826)  can0  581   [8]  43 6C 60 02 2B 00 00 00
 (1789376291.466765)  can0  181   [8]  27 14 27 44 00 00 30 00
 (1789376291.494491)  can0  601   [8]  40 6C 60 02 00 00 00 00
 (1789376291.494823)  can0  581   [8]  43 6C 60 02 33 00 00 00
 (1789376291.516711)  can0  181   [8]  27 14 27 44 00 00 34 00
 (1789376291.551490)  can0  601   [8]  40 6C 60 02 00 00 00 00
 (1789376291.551824)  can0  581   [8]  43 6C 60 02 2C 00 00 00
 (1789376291.566664)  can0  181   [8]  27 14 27 44 00 00 2C 00
 (1789376291.608491)  can0  601   [8]  40 6C 60 02 00 00 00 00
 (1789376291.608820)  can0  581   [8]  43 6C 60 02 30 00 00 00
 (1789376291.616616)  can0  181   [8]  27 14 27 44 00 00 30 00
 (1789376291.665490)  can0  601   [8]  40 6C 60 02 00 00 00 00
 (1789376291.665818)  can0  581   [8]  43 6C 60 02 34 00 00 00
 (1789376291.666565)  can0  181   [8]  27 14 27 44 00 00 34 00
 (1789376291.668006)  can0  701   [1]  05
 (1789376291.716518)  can0  181   [8]  27 14 27 44 00 00 34 00
 (1789376291.721491)  can0  601   [8]  40 6C 60 02 00 00 00 00
 (1789376291.721818)  can0  581   [8]  43 6C 60 02 33 00 00 00
 (1789376291.766469)  can0  181   [8]  27 14 27 44 00 00 31 00
 (1789376291.777488)  can0  601   [8]  40 6C 60 02 00 00 00 00
 (1789376291.777817)  can0  581   [8]  43 6C 60 02 34 00 00 00
 (1789376291.816417)  can0  181   [8]  27 14 27 44 00 00 31 00
 (1789376291.834512)  can0  601   [8]  23 FF 60 03 00 00 00 00
 (1789376291.834823)  can0  581   [8]  60 FF 60 03 00 00 00 00
 (1789376291.836487)  can0  601   [8]  40 FF 60 03 00 00 00 00
 (1789376291.836816)  can0  581   [8]  43 FF 60 03 00 00 00 00
 (1789376291.838492)  can0  601   [8]  23 FF 60 03 00 00 00 00
 (1789376291.838813)  can0  581   [8]  60 FF 60 03 00 00 00 00
 (1789376291.840487)  can0  601   [8]  40 FF 60 03 00 00 00 00
 (1789376291.840749)  can0  581   [8]  43 FF 60 03 00 00 00 00
 (1789376291.842499)  can0  601   [8]  2B 40 60 00 06 00 00 00
 (1789376291.842810)  can0  581   [8]  60 40 60 00 00 00 00 00
 (1789376291.866380)  can0  181   [8]  21 14 21 14 00 00 21 00
 (1789376291.916387)  can0  181   [8]  21 14 21 14 00 00 EC FF
 (1789376291.917577)  can0  701   [1]  05
 (1789376291.966345)  can0  181   [8]  21 14 21 14 00 00 F7 FF
 (1789376292.016357)  can0  181   [8]  21 14 21 14 00 00 00 00
 (1789376292.018496)  can0  601   [8]  40 6C 60 01 00 00 00 00
 (1789376292.018849)  can0  581   [8]  43 6C 60 01 00 00 00 00
 (1789376292.020489)  can0  601   [8]  40 6C 60 02 00 00 00 00
 (1789376292.020846)  can0  581   [8]  43 6C 60 02 00 00 00 00
 (1789376292.022488)  can0  601   [8]  40 6C 60 03 00 00 00 00
 (1789376292.022841)  can0  581   [8]  43 6C 60 03 00 00 00 00
 (1789376292.024384)  can0  000   [2]  80 01
 (1789376292.167088)  can0  701   [1]  7F
 (1789376292.168493)  can0  601   [8]  2B 17 10 00 00 00 00 00
 (1789376292.168833)  can0  581   [8]  60 17 10 00 00 00 00 00
 (1789376292.170487)  can0  601   [8]  40 17 10 00 00 00 00 00
 (1789376292.170825)  can0  581   [8]  4B 17 10 00 00 00 00 00
 (1789376292.172498)  can0  601   [8]  2B 00 20 00 00 00 00 00
 (1789376292.172828)  can0  581   [8]  60 00 20 00 00 00 00 00
 (1789376292.174491)  can0  601   [8]  40 00 20 00 00 00 00 00
 (1789376292.174819)  can0  581   [8]  4B 00 20 00 00 00 00 00
