 (1789092697.214653)  can0  601   [8]  40 41 60 00 00 00 00 00
 (1789092697.215001)  can0  581   [8]  43 41 60 00 21 14 21 14
 (1789092697.216591)  can0  601   [8]  40 60 60 00 00 00 00 00
 (1789092697.216947)  can0  581   [8]  4F 60 60 00 03 00 00 00
 (1789092697.218583)  can0  601   [8]  40 61 60 00 00 00 00 00
 (1789092697.218939)  can0  581   [8]  4F 61 60 00 03 00 00 00
 (1789092697.220582)  can0  601   [8]  40 FF 60 01 00 00 00 00
 (1789092697.220939)  can0  581   [8]  43 FF 60 01 00 00 00 00
 (1789092697.222584)  can0  601   [8]  40 FF 60 02 00 00 00 00
 (1789092697.222936)  can0  581   [8]  43 FF 60 02 00 00 00 00
 (1789092697.224586)  can0  601   [8]  40 3F 60 00 00 00 00 00
 (1789092697.224929)  can0  581   [8]  43 3F 60 00 00 00 00 00
 (1789092697.226585)  can0  601   [8]  40 6C 60 01 00 00 00 00
 (1789092697.226862)  can0  581   [8]  43 6C 60 01 00 00 00 00
 (1789092697.227594)  can0  601   [8]  40 6C 60 02 00 00 00 00
 (1789092697.227921)  can0  581   [8]  43 6C 60 02 00 00 00 00
 (1789092697.229523)  can0  601   [8]  40 6C 60 03 00 00 00 00
 (1789092697.229855)  can0  581   [8]  43 6C 60 03 00 00 00 00
 (1789092697.231524)  can0  601   [8]  40 17 10 00 00 00 00 00
 (1789092697.231852)  can0  581   [8]  4B 17 10 00 00 00 00 00
 (1789092697.233526)  can0  601   [8]  40 00 18 01 00 00 00 00
 (1789092697.233847)  can0  581   [8]  43 00 18 01 81 01 00 00
 (1789092697.235521)  can0  601   [8]  40 00 18 02 00 00 00 00
 (1789092697.235843)  can0  581   [8]  4F 00 18 02 FF 00 00 00
 (1789092697.237523)  can0  601   [8]  40 00 18 05 00 00 00 00
 (1789092697.237839)  can0  581   [8]  4B 00 18 05 64 00 00 00
 (1789092697.239525)  can0  601   [8]  40 00 1A 00 00 00 00 00
 (1789092697.239839)  can0  581   [8]  4F 00 1A 00 02 00 00 00
 (1789092697.241523)  can0  601   [8]  40 00 1A 01 00 00 00 00
 (1789092697.241828)  can0  581   [8]  43 00 1A 01 20 00 41 60
 (1789092697.243526)  can0  601   [8]  40 00 1A 02 00 00 00 00
 (1789092697.243879)  can0  581   [8]  43 00 1A 02 20 03 6C 60
 (1789092697.245524)  can0  601   [8]  2B 17 10 00 F4 01 00 00
 (1789092697.245887)  can0  581   [8]  60 17 10 00 00 00 00 00
 (1789092697.247523)  can0  601   [8]  40 17 10 00 00 00 00 00
 (1789092697.247872)  can0  581   [8]  4B 17 10 00 F4 01 00 00
 (1789092697.249419)  can0  000   [2]  80 01
 (1789092697.495298)  can0  701   [1]  7F
 (1789092697.497418)  can0  000   [2]  01 01
 (1789092697.497735)  can0  181   [8]  21 14 21 14 00 00 00 00
 (1789092697.497835)  can0  281   [0] 
 (1789092697.497935)  can0  381   [0] 
 (1789092697.498033)  can0  481   [0] 
 (1789092697.547732)  can0  181   [8]  21 14 21 14 00 00 00 00
 (1789092697.597677)  can0  181   [8]  21 14 21 14 00 00 00 00
 (1789092697.647625)  can0  181   [8]  21 14 21 14 00 00 00 00
 (1789092697.697569)  can0  181   [8]  21 14 21 14 00 00 00 00
 (1789092697.744836)  can0  701   [1]  05
 (1789092697.745532)  can0  601   [8]  40 41 60 00 00 00 00 00
 (1789092697.745832)  can0  581   [8]  43 41 60 00 21 14 21 14
 (1789092697.747514)  can0  181   [8]  21 14 21 14 00 00 00 00
 (1789092697.758542)  can0  601   [8]  40 41 60 00 00 00 00 00
 (1789092697.758855)  can0  581   [8]  43 41 60 00 21 14 21 14
 (1789092697.760525)  can0  601   [8]  40 6C 60 01 00 00 00 00
 (1789092697.760859)  can0  581   [8]  43 6C 60 01 00 00 00 00
 (1789092697.762523)  can0  601   [8]  40 6C 60 02 00 00 00 00
 (1789092697.762854)  can0  581   [8]  43 6C 60 02 00 00 00 00
 (1789092697.764525)  can0  601   [8]  40 6C 60 03 00 00 00 00
 (1789092697.764848)  can0  581   [8]  43 6C 60 03 00 00 00 00
 (1789092697.797459)  can0  181   [8]  21 14 21 14 00 00 00 00
 (1789092697.847405)  can0  181   [8]  21 14 21 14 00 00 00 00
 (1789092697.897350)  can0  181   [8]  21 14 21 14 00 00 00 00
 (1789092697.947298)  can0  181   [8]  21 14 21 14 00 00 00 00
 (1789092697.994314)  can0  701   [1]  05
 (1789092697.997241)  can0  181   [8]  21 14 21 14 00 00 00 00
 (1789092698.047186)  can0  181   [8]  21 14 21 14 00 00 00 00
 (1789092698.097131)  can0  181   [8]  21 14 21 14 00 00 00 00
 (1789092698.147076)  can0  181   [8]  21 14 21 14 00 00 00 00
 (1789092698.197022)  can0  181   [8]  21 14 21 14 00 00 00 00
 (1789092698.243853)  can0  701   [1]  05
 (1789092698.246968)  can0  181   [8]  21 14 21 14 00 00 00 00
 (1789092698.296914)  can0  181   [8]  21 14 21 14 00 00 00 00
 (1789092698.346858)  can0  181   [8]  21 14 21 14 00 00 00 00
 (1789092698.396803)  can0  181   [8]  21 14 21 14 00 00 00 00
 (1789092698.446748)  can0  181   [8]  21 14 21 14 00 00 00 00
 (1789092698.493330)  can0  701   [1]  05
 (1789092698.496694)  can0  181   [8]  21 14 21 14 00 00 00 00
 (1789092698.546638)  can0  181   [8]  21 14 21 14 00 00 00 00
 (1789092698.596585)  can0  181   [8]  21 14 21 14 00 00 00 00
 (1789092698.646530)  can0  181   [8]  21 14 21 14 00 00 00 00
 (1789092698.696475)  can0  181   [8]  21 14 21 14 00 00 00 00
 (1789092698.742870)  can0  701   [1]  05
 (1789092698.746420)  can0  181   [8]  21 14 21 14 00 00 00 00
 (1789092698.762542)  can0  601   [8]  40 41 60 00 00 00 00 00
 (1789092698.762875)  can0  581   [8]  43 41 60 00 21 14 21 14
 (1789092698.764527)  can0  601   [8]  40 6C 60 01 00 00 00 00
 (1789092698.764876)  can0  581   [8]  43 6C 60 01 00 00 00 00
 (1789092698.766523)  can0  601   [8]  40 6C 60 02 00 00 00 00
 (1789092698.766872)  can0  581   [8]  43 6C 60 02 00 00 00 00
 (1789092698.768523)  can0  601   [8]  40 6C 60 03 00 00 00 00
 (1789092698.768867)  can0  581   [8]  43 6C 60 03 00 00 00 00
 (1789092698.796365)  can0  181   [8]  21 14 21 14 00 00 00 00
 (1789092698.846310)  can0  181   [8]  21 14 21 14 00 00 00 00
 (1789092698.896255)  can0  181   [8]  21 14 21 14 00 00 00 00
 (1789092698.946203)  can0  181   [8]  21 14 21 14 00 00 00 00
 (1789092698.992347)  can0  701   [1]  05
 (1789092698.996147)  can0  181   [8]  21 14 21 14 00 00 00 00
 (1789092699.046093)  can0  181   [8]  21 14 21 14 00 00 00 00
 (1789092699.096037)  can0  181   [8]  21 14 21 14 00 00 00 00
 (1789092699.145982)  can0  181   [8]  21 14 21 14 00 00 00 00
 (1789092699.195927)  can0  181   [8]  21 14 21 14 00 00 00 00
 (1789092699.241888)  can0  701   [1]  05
 (1789092699.245873)  can0  181   [8]  21 14 21 14 00 00 00 00
 (1789092699.295819)  can0  181   [8]  21 14 21 14 00 00 00 00
 (1789092699.345765)  can0  181   [8]  21 14 21 14 00 00 00 00
 (1789092699.395709)  can0  181   [8]  21 14 21 14 00 00 00 00
 (1789092699.445656)  can0  181   [8]  21 14 21 14 00 00 00 00
 (1789092699.491362)  can0  701   [1]  05
 (1789092699.495599)  can0  181   [8]  21 14 21 14 00 00 00 00
 (1789092699.545544)  can0  181   [8]  21 14 21 14 00 00 00 00
 (1789092699.595491)  can0  181   [8]  21 14 21 14 00 00 00 00
 (1789092699.645436)  can0  181   [8]  21 14 21 14 00 00 00 00
 (1789092699.695381)  can0  181   [8]  21 14 21 14 00 00 00 00
 (1789092699.740902)  can0  701   [1]  05
 (1789092699.745326)  can0  181   [8]  21 14 21 14 00 00 00 00
 (1789092699.767542)  can0  601   [8]  40 41 60 00 00 00 00 00
 (1789092699.767891)  can0  581   [8]  43 41 60 00 21 14 21 14
 (1789092699.769525)  can0  601   [8]  40 6C 60 01 00 00 00 00
 (1789092699.769832)  can0  581   [8]  43 6C 60 01 00 00 00 00
 (1789092699.771523)  can0  601   [8]  40 6C 60 02 00 00 00 00
 (1789092699.771830)  can0  581   [8]  43 6C 60 02 00 00 00 00
 (1789092699.773522)  can0  601   [8]  40 6C 60 03 00 00 00 00
 (1789092699.773830)  can0  581   [8]  43 6C 60 03 00 00 00 00
 (1789092699.795272)  can0  181   [8]  21 14 21 14 00 00 00 00
 (1789092699.845217)  can0  181   [8]  21 14 21 14 00 00 00 00
 (1789092699.895162)  can0  181   [8]  21 14 21 14 00 00 00 00
 (1789092699.945165)  can0  181   [8]  21 14 21 14 00 00 00 00
 (1789092699.990381)  can0  701   [1]  05
 (1789092699.995052)  can0  181   [8]  21 14 21 14 00 00 00 00
 (1789092700.044997)  can0  181   [8]  21 14 21 14 00 00 00 00
 (1789092700.094944)  can0  181   [8]  21 14 21 14 00 00 00 00
 (1789092700.144889)  can0  181   [8]  21 14 21 14 00 00 00 00
 (1789092700.194834)  can0  181   [8]  21 14 21 14 00 00 00 00
 (1789092700.239919)  can0  701   [1]  05
 (1789092700.244779)  can0  181   [8]  21 14 21 14 00 00 00 00
 (1789092700.294724)  can0  181   [8]  21 14 21 14 00 00 00 00
 (1789092700.344669)  can0  181   [8]  21 14 21 14 00 00 00 00
 (1789092700.394616)  can0  181   [8]  21 14 21 14 00 00 00 00
 (1789092700.444561)  can0  181   [8]  21 14 21 14 00 00 00 00
 (1789092700.489397)  can0  701   [1]  05
 (1789092700.494506)  can0  181   [8]  21 14 21 14 00 00 00 00
 (1789092700.544451)  can0  181   [8]  21 14 21 14 00 00 00 00
 (1789092700.594396)  can0  181   [8]  21 14 21 14 00 00 00 00
 (1789092700.644341)  can0  181   [8]  21 14 21 14 00 00 00 00
 (1789092700.694286)  can0  181   [8]  21 14 21 14 00 00 00 00
 (1789092700.738934)  can0  701   [1]  05
 (1789092700.744295)  can0  181   [8]  21 14 21 14 00 00 00 00
 (1789092700.774546)  can0  601   [8]  40 41 60 00 00 00 00 00
 (1789092700.774845)  can0  581   [8]  43 41 60 00 21 14 21 14
 (1789092700.776526)  can0  601   [8]  40 6C 60 01 00 00 00 00
 (1789092700.776843)  can0  581   [8]  43 6C 60 01 00 00 00 00
 (1789092700.778523)  can0  601   [8]  40 6C 60 02 00 00 00 00
 (1789092700.778840)  can0  581   [8]  43 6C 60 02 00 00 00 00
 (1789092700.780523)  can0  601   [8]  40 6C 60 03 00 00 00 00
 (1789092700.780834)  can0  581   [8]  43 6C 60 03 00 00 00 00
 (1789092700.794301)  can0  181   [8]  21 14 21 14 00 00 00 00
 (1789092700.844249)  can0  181   [8]  21 14 21 14 00 00 00 00
 (1789092700.894195)  can0  181   [8]  21 14 21 14 00 00 00 00
 (1789092700.944200)  can0  181   [8]  21 14 21 14 00 00 00 00
 (1789092700.988474)  can0  701   [1]  05
 (1789092700.994209)  can0  181   [8]  21 14 21 14 00 00 00 00
 (1789092701.044215)  can0  181   [8]  21 14 21 14 00 00 00 00
 (1789092701.094223)  can0  181   [8]  21 14 21 14 00 00 00 00
 (1789092701.144231)  can0  181   [8]  21 14 21 14 00 00 00 00
 (1789092701.194238)  can0  181   [8]  21 14 21 14 00 00 00 00
 (1789092701.238014)  can0  701   [1]  05
 (1789092701.244247)  can0  181   [8]  21 14 21 14 00 00 00 00
 (1789092701.294255)  can0  181   [8]  21 14 21 14 00 00 00 00
 (1789092701.344261)  can0  181   [8]  21 14 21 14 00 00 00 00
 (1789092701.394270)  can0  181   [8]  21 14 21 14 00 00 00 00
 (1789092701.444276)  can0  181   [8]  21 14 21 14 00 00 00 00
 (1789092701.487553)  can0  701   [1]  05
 (1789092701.494286)  can0  181   [8]  21 14 21 14 00 00 00 00
 (1789092701.544292)  can0  181   [8]  21 14 21 14 00 00 00 00
 (1789092701.594299)  can0  181   [8]  21 14 21 14 00 00 00 00
 (1789092701.644309)  can0  181   [8]  21 14 21 14 00 00 00 00
 (1789092701.694315)  can0  181   [8]  21 14 21 14 00 00 00 00
 (1789092701.737093)  can0  701   [1]  05
 (1789092701.744324)  can0  181   [8]  21 14 21 14 00 00 00 00
 (1789092701.780541)  can0  601   [8]  40 41 60 00 00 00 00 00
 (1789092701.780854)  can0  581   [8]  43 41 60 00 21 14 21 14
 (1789092701.782527)  can0  601   [8]  40 6C 60 01 00 00 00 00
 (1789092701.782858)  can0  581   [8]  43 6C 60 01 00 00 00 00
 (1789092701.784522)  can0  601   [8]  40 6C 60 02 00 00 00 00
 (1789092701.784853)  can0  581   [8]  43 6C 60 02 00 00 00 00
 (1789092701.786523)  can0  601   [8]  40 6C 60 03 00 00 00 00
 (1789092701.786849)  can0  581   [8]  43 6C 60 03 00 00 00 00
 (1789092701.794330)  can0  181   [8]  21 14 21 14 00 00 00 00
 (1789092701.844339)  can0  181   [8]  21 14 21 14 00 00 00 00
 (1789092701.894346)  can0  181   [8]  21 14 21 14 00 00 00 00
 (1789092701.944355)  can0  181   [8]  21 14 21 14 00 00 00 00
 (1789092701.986633)  can0  701   [1]  05
 (1789092701.994361)  can0  181   [8]  21 14 21 14 00 00 00 00
 (1789092702.044368)  can0  181   [8]  21 14 21 14 00 00 00 00
 (1789092702.094377)  can0  181   [8]  21 14 21 14 00 00 00 00
 (1789092702.144384)  can0  181   [8]  21 14 21 14 00 00 00 00
 (1789092702.194393)  can0  181   [8]  21 14 21 14 00 00 00 00
 (1789092702.236173)  can0  701   [1]  05
 (1789092702.244400)  can0  181   [8]  21 14 21 14 00 00 00 00
 (1789092702.294407)  can0  181   [8]  21 14 21 14 00 00 00 00
 (1789092702.344416)  can0  181   [8]  21 14 21 14 00 00 00 00
 (1789092702.394423)  can0  181   [8]  21 14 21 14 00 00 00 00
 (1789092702.444431)  can0  181   [8]  21 14 21 14 00 00 00 00
 (1789092702.485650)  can0  701   [1]  05
 (1789092702.494438)  can0  181   [8]  21 14 21 14 00 00 00 00
 (1789092702.544445)  can0  181   [8]  21 14 21 14 00 00 00 00
 (1789092702.594454)  can0  181   [8]  21 14 21 14 00 00 00 00
 (1789092702.644461)  can0  181   [8]  21 14 21 14 00 00 00 00
 (1789092702.694470)  can0  181   [8]  21 14 21 14 00 00 00 00
 (1789092702.735188)  can0  701   [1]  05
 (1789092702.744478)  can0  181   [8]  21 14 21 14 00 00 00 00
 (1789092702.786545)  can0  601   [8]  40 41 60 00 00 00 00 00
 (1789092702.786871)  can0  581   [8]  43 41 60 00 21 14 21 14
 (1789092702.788525)  can0  601   [8]  40 6C 60 01 00 00 00 00
 (1789092702.788872)  can0  581   [8]  43 6C 60 01 00 00 00 00
 (1789092702.790520)  can0  601   [8]  40 6C 60 02 00 00 00 00
 (1789092702.790867)  can0  581   [8]  43 6C 60 02 00 00 00 00
 (1789092702.792524)  can0  601   [8]  40 6C 60 03 00 00 00 00
 (1789092702.792863)  can0  581   [8]  43 6C 60 03 00 00 00 00
 (1789092702.794484)  can0  181   [8]  21 14 21 14 00 00 00 00
 (1789092702.844489)  can0  181   [8]  21 14 21 14 00 00 00 00
 (1789092702.894436)  can0  181   [8]  21 14 21 14 00 00 00 00
 (1789092702.944392)  can0  181   [8]  21 14 21 14 00 00 00 00
 (1789092702.984728)  can0  701   [1]  05
 (1789092702.994394)  can0  181   [8]  21 14 21 14 00 00 00 00
 (1789092703.044397)  can0  181   [8]  21 14 21 14 00 00 00 00
 (1789092703.094344)  can0  181   [8]  21 14 21 14 00 00 00 00
 (1789092703.144289)  can0  181   [8]  21 14 21 14 00 00 00 00
 (1789092703.194234)  can0  181   [8]  21 14 21 14 00 00 00 00
 (1789092703.234205)  can0  701   [1]  05
 (1789092703.244179)  can0  181   [8]  21 14 21 14 00 00 00 00
 (1789092703.294124)  can0  181   [8]  21 14 21 14 00 00 00 00
 (1789092703.344071)  can0  181   [8]  21 14 21 14 00 00 00 00
 (1789092703.394014)  can0  181   [8]  21 14 21 14 00 00 00 00
 (1789092703.443961)  can0  181   [8]  21 14 21 14 00 00 00 00
 (1789092703.483745)  can0  701   [1]  05
 (1789092703.493906)  can0  181   [8]  21 14 21 14 00 00 00 00
 (1789092703.543851)  can0  181   [8]  21 14 21 14 00 00 00 00
 (1789092703.593796)  can0  181   [8]  21 14 21 14 00 00 00 00
 (1789092703.643741)  can0  181   [8]  21 14 21 14 00 00 00 00
 (1789092703.693687)  can0  181   [8]  21 14 21 14 00 00 00 00
 (1789092703.733223)  can0  701   [1]  05
 (1789092703.743631)  can0  181   [8]  21 14 21 14 00 00 00 00
 (1789092703.790554)  can0  601   [8]  40 41 60 00 00 00 00 00
 (1789092703.790890)  can0  581   [8]  43 41 60 00 21 14 21 14
 (1789092703.792527)  can0  601   [8]  40 6C 60 01 00 00 00 00
 (1789092703.792835)  can0  581   [8]  43 6C 60 01 00 00 00 00
 (1789092703.793577)  can0  181   [8]  21 14 21 14 00 00 00 00
 (1789092703.793841)  can0  601   [8]  40 6C 60 02 00 00 00 00
 (1789092703.794197)  can0  581   [8]  43 6C 60 02 00 00 00 00
 (1789092703.795525)  can0  601   [8]  40 6C 60 03 00 00 00 00
 (1789092703.795880)  can0  581   [8]  43 6C 60 03 00 00 00 00
 (1789092703.843522)  can0  181   [8]  21 14 21 14 00 00 00 00
 (1789092703.893467)  can0  181   [8]  21 14 21 14 00 00 00 00
 (1789092703.943415)  can0  181   [8]  21 14 21 14 00 00 00 00
 (1789092703.982761)  can0  701   [1]  05
 (1789092703.993359)  can0  181   [8]  21 14 21 14 00 00 00 00
 (1789092704.043304)  can0  181   [8]  21 14 21 14 00 00 00 00
 (1789092704.093249)  can0  181   [8]  21 14 21 14 00 00 00 00
 (1789092704.143194)  can0  181   [8]  21 14 21 14 00 00 00 00
 (1789092704.193140)  can0  181   [8]  21 14 21 14 00 00 00 00
 (1789092704.232239)  can0  701   [1]  05
 (1789092704.243084)  can0  181   [8]  21 14 21 14 00 00 00 00
 (1789092704.293032)  can0  181   [8]  21 14 21 14 00 00 00 00
 (1789092704.342976)  can0  181   [8]  21 14 21 14 00 00 00 00
 (1789092704.392921)  can0  181   [8]  21 14 21 14 00 00 00 00
 (1789092704.442866)  can0  181   [8]  21 14 21 14 00 00 00 00
 (1789092704.481778)  can0  701   [1]  05
 (1789092704.492811)  can0  181   [8]  21 14 21 14 00 00 00 00
 (1789092704.542757)  can0  181   [8]  21 14 21 14 00 00 00 00
 (1789092704.592701)  can0  181   [8]  21 14 21 14 00 00 00 00
 (1789092704.642648)  can0  181   [8]  21 14 21 14 00 00 00 00
 (1789092704.692594)  can0  181   [8]  21 14 21 14 00 00 00 00
 (1789092704.731256)  can0  701   [1]  05
 (1789092704.742538)  can0  181   [8]  21 14 21 14 00 00 00 00
 (1789092704.792484)  can0  181   [8]  21 14 21 14 00 00 00 00
 (1789092704.796546)  can0  601   [8]  40 41 60 00 00 00 00 00
 (1789092704.796845)  can0  581   [8]  43 41 60 00 21 14 21 14
 (1789092704.798527)  can0  601   [8]  40 6C 60 01 00 00 00 00
 (1789092704.798845)  can0  581   [8]  43 6C 60 01 00 00 00 00
 (1789092704.800523)  can0  601   [8]  40 6C 60 02 00 00 00 00
 (1789092704.800840)  can0  581   [8]  43 6C 60 02 00 00 00 00
 (1789092704.802523)  can0  601   [8]  40 6C 60 03 00 00 00 00
 (1789092704.802834)  can0  581   [8]  43 6C 60 03 00 00 00 00
 (1789092704.842429)  can0  181   [8]  21 14 21 14 00 00 00 00
 (1789092704.892373)  can0  181   [8]  21 14 21 14 00 00 00 00
 (1789092704.942321)  can0  181   [8]  21 14 21 14 00 00 00 00
 (1789092704.980795)  can0  701   [1]  05
 (1789092704.992265)  can0  181   [8]  21 14 21 14 00 00 00 00
 (1789092705.042211)  can0  181   [8]  21 14 21 14 00 00 00 00
 (1789092705.092156)  can0  181   [8]  21 14 21 14 00 00 00 00
 (1789092705.142101)  can0  181   [8]  21 14 21 14 00 00 00 00
 (1789092705.192046)  can0  181   [8]  21 14 21 14 00 00 00 00
 (1789092705.230273)  can0  701   [1]  05
 (1789092705.241990)  can0  181   [8]  21 14 21 14 00 00 00 00
 (1789092705.291938)  can0  181   [8]  21 14 21 14 00 00 00 00
 (1789092705.341883)  can0  181   [8]  21 14 21 14 00 00 00 00
 (1789092705.391828)  can0  181   [8]  21 14 21 14 00 00 00 00
 (1789092705.441773)  can0  181   [8]  21 14 21 14 00 00 00 00
 (1789092705.479812)  can0  701   [1]  05
 (1789092705.491718)  can0  181   [8]  21 14 21 14 00 00 00 00
 (1789092705.541663)  can0  181   [8]  21 14 21 14 00 00 00 00
 (1789092705.591608)  can0  181   [8]  21 14 21 14 00 00 00 00
 (1789092705.641555)  can0  181   [8]  21 14 21 14 00 00 00 00
 (1789092705.691500)  can0  181   [8]  21 14 21 14 00 00 00 00
 (1789092705.729290)  can0  701   [1]  05
 (1789092705.741445)  can0  181   [8]  21 14 21 14 00 00 00 00
 (1789092705.791391)  can0  181   [8]  21 14 21 14 00 00 00 00
 (1789092705.804550)  can0  601   [8]  40 41 60 00 00 00 00 00
 (1789092705.804851)  can0  581   [8]  43 41 60 00 21 14 21 14
 (1789092705.806528)  can0  601   [8]  40 6C 60 01 00 00 00 00
 (1789092705.806855)  can0  581   [8]  43 6C 60 01 00 00 00 00
 (1789092705.808523)  can0  601   [8]  40 6C 60 02 00 00 00 00
 (1789092705.808850)  can0  581   [8]  43 6C 60 02 00 00 00 00
 (1789092705.810525)  can0  601   [8]  40 6C 60 03 00 00 00 00
 (1789092705.810844)  can0  581   [8]  43 6C 60 03 00 00 00 00
 (1789092705.841335)  can0  181   [8]  21 14 21 14 00 00 00 00
 (1789092705.891280)  can0  181   [8]  21 14 21 14 00 00 00 00
 (1789092705.941226)  can0  181   [8]  21 14 21 14 00 00 00 00
 (1789092705.978828)  can0  701   [1]  05
 (1789092705.991172)  can0  181   [8]  21 14 21 14 00 00 00 00
 (1789092706.041117)  can0  181   [8]  21 14 21 14 00 00 00 00
 (1789092706.091067)  can0  181   [8]  21 14 21 14 00 00 00 00
 (1789092706.141069)  can0  181   [8]  21 14 21 14 00 00 00 00
 (1789092706.191014)  can0  181   [8]  21 14 21 14 00 00 00 00
 (1789092706.228305)  can0  701   [1]  05
 (1789092706.240961)  can0  181   [8]  21 14 21 14 00 00 00 00
 (1789092706.290907)  can0  181   [8]  21 14 21 14 00 00 00 00
 (1789092706.340851)  can0  181   [8]  21 14 21 14 00 00 00 00
 (1789092706.390796)  can0  181   [8]  21 14 21 14 00 00 00 00
 (1789092706.440742)  can0  181   [8]  21 14 21 14 00 00 00 00
 (1789092706.477845)  can0  701   [1]  05
 (1789092706.490687)  can0  181   [8]  21 14 21 14 00 00 00 00
 (1789092706.540632)  can0  181   [8]  21 14 21 14 00 00 00 00
 (1789092706.590578)  can0  181   [8]  21 14 21 14 00 00 00 00
 (1789092706.640524)  can0  181   [8]  21 14 21 14 00 00 00 00
 (1789092706.690469)  can0  181   [8]  21 14 21 14 00 00 00 00
 (1789092706.727323)  can0  701   [1]  05
 (1789092706.740414)  can0  181   [8]  21 14 21 14 00 00 00 00
 (1789092706.790359)  can0  181   [8]  21 14 21 14 00 00 00 00
 (1789092706.811542)  can0  601   [8]  40 41 60 00 00 00 00 00
 (1789092706.811864)  can0  581   [8]  43 41 60 00 21 14 21 14
 (1789092706.813528)  can0  601   [8]  40 6C 60 01 00 00 00 00
 (1789092706.813867)  can0  581   [8]  43 6C 60 01 00 00 00 00
 (1789092706.815521)  can0  601   [8]  40 6C 60 02 00 00 00 00
 (1789092706.815862)  can0  581   [8]  43 6C 60 02 00 00 00 00
 (1789092706.817523)  can0  601   [8]  40 6C 60 03 00 00 00 00
 (1789092706.817858)  can0  581   [8]  43 6C 60 03 00 00 00 00
 (1789092706.840304)  can0  181   [8]  21 14 21 14 00 00 00 00
 (1789092706.890249)  can0  181   [8]  21 14 21 14 00 00 00 00
 (1789092706.940194)  can0  181   [8]  21 14 21 14 00 00 00 00
 (1789092706.976863)  can0  701   [1]  05
 (1789092706.990139)  can0  181   [8]  21 14 21 14 00 00 00 00
 (1789092707.040087)  can0  181   [8]  21 14 21 14 00 00 00 00
 (1789092707.090031)  can0  181   [8]  21 14 21 14 00 00 00 00
 (1789092707.139976)  can0  181   [8]  21 14 21 14 00 00 00 00
 (1789092707.189921)  can0  181   [8]  21 14 21 14 00 00 00 00
 (1789092707.226340)  can0  701   [1]  05
 (1789092707.239866)  can0  181   [8]  21 14 21 14 00 00 00 00
 (1789092707.289812)  can0  181   [8]  21 14 21 14 00 00 00 00
 (1789092707.339758)  can0  181   [8]  21 14 21 14 00 00 00 00
 (1789092707.389704)  can0  181   [8]  21 14 21 14 00 00 00 00
 (1789092707.439649)  can0  181   [8]  21 14 21 14 00 00 00 00
 (1789092707.475878)  can0  701   [1]  05
 (1789092707.489655)  can0  181   [8]  21 14 21 14 00 00 00 00
 (1789092707.539601)  can0  181   [8]  21 14 21 14 00 00 00 00
 (1789092707.589548)  can0  181   [8]  21 14 21 14 00 00 00 00
 (1789092707.639492)  can0  181   [8]  21 14 21 14 00 00 00 00
 (1789092707.689438)  can0  181   [8]  21 14 21 14 00 00 00 00
 (1789092707.725419)  can0  701   [1]  05
 (1789092707.739383)  can0  181   [8]  21 14 21 14 00 00 00 00
 (1789092707.789329)  can0  181   [8]  21 14 21 14 00 00 00 00
 (1789092707.818545)  can0  601   [8]  40 41 60 00 00 00 00 00
 (1789092707.818876)  can0  581   [8]  43 41 60 00 21 14 21 14
 (1789092707.820526)  can0  601   [8]  40 6C 60 01 00 00 00 00
 (1789092707.820880)  can0  581   [8]  43 6C 60 01 00 00 00 00
 (1789092707.822522)  can0  601   [8]  40 6C 60 02 00 00 00 00
 (1789092707.822875)  can0  581   [8]  43 6C 60 02 00 00 00 00
 (1789092707.824523)  can0  601   [8]  40 6C 60 03 00 00 00 00
 (1789092707.824871)  can0  581   [8]  43 6C 60 03 00 00 00 00
 (1789092707.839273)  can0  181   [8]  21 14 21 14 00 00 00 00
 (1789092707.889219)  can0  181   [8]  21 14 21 14 00 00 00 00
 (1789092707.939164)  can0  181   [8]  21 14 21 14 00 00 00 00
 (1789092707.974897)  can0  701   [1]  05
 (1789092707.989109)  can0  181   [8]  21 14 21 14 00 00 00 00
 (1789092708.039056)  can0  181   [8]  21 14 21 14 00 00 00 00
 (1789092708.089001)  can0  181   [8]  21 14 21 14 00 00 00 00
 (1789092708.138946)  can0  181   [8]  21 14 21 14 00 00 00 00
 (1789092708.188891)  can0  181   [8]  21 14 21 14 00 00 00 00
 (1789092708.224436)  can0  701   [1]  05
 (1789092708.238835)  can0  181   [8]  21 14 21 14 00 00 00 00
 (1789092708.288781)  can0  181   [8]  21 14 21 14 00 00 00 00
 (1789092708.338726)  can0  181   [8]  21 14 21 14 00 00 00 00
 (1789092708.388673)  can0  181   [8]  21 14 21 14 00 00 00 00
 (1789092708.438618)  can0  181   [8]  21 14 21 14 00 00 00 00
 (1789092708.473913)  can0  701   [1]  05
 (1789092708.488563)  can0  181   [8]  21 14 21 14 00 00 00 00
 (1789092708.538508)  can0  181   [8]  21 14 21 14 00 00 00 00
 (1789092708.588453)  can0  181   [8]  21 14 21 14 00 00 00 00
 (1789092708.638398)  can0  181   [8]  21 14 21 14 00 00 00 00
 (1789092708.688343)  can0  181   [8]  21 14 21 14 00 00 00 00
 (1789092708.723453)  can0  701   [1]  05
 (1789092708.738290)  can0  181   [8]  21 14 21 14 00 00 00 00
 (1789092708.788235)  can0  181   [8]  21 14 21 14 00 00 00 00
 (1789092708.824572)  can0  601   [8]  40 41 60 00 00 00 00 00
 (1789092708.824891)  can0  581   [8]  43 41 60 00 21 14 21 14
 (1789092708.826526)  can0  601   [8]  40 6C 60 01 00 00 00 00
 (1789092708.826833)  can0  581   [8]  43 6C 60 01 00 00 00 00
 (1789092708.828521)  can0  601   [8]  40 6C 60 02 00 00 00 00
 (1789092708.828828)  can0  581   [8]  43 6C 60 02 00 00 00 00
 (1789092708.830523)  can0  601   [8]  40 6C 60 03 00 00 00 00
 (1789092708.830830)  can0  581   [8]  43 6C 60 03 00 00 00 00
 (1789092708.838179)  can0  181   [8]  21 14 21 14 00 00 00 00
 (1789092708.888124)  can0  181   [8]  21 14 21 14 00 00 00 00
 (1789092708.938071)  can0  181   [8]  21 14 21 14 00 00 00 00
 (1789092708.972931)  can0  701   [1]  05
 (1789092708.988017)  can0  181   [8]  21 14 21 14 00 00 00 00
 (1789092709.037961)  can0  181   [8]  21 14 21 14 00 00 00 00
 (1789092709.087906)  can0  181   [8]  21 14 21 14 00 00 00 00
 (1789092709.137851)  can0  181   [8]  21 14 21 14 00 00 00 00
 (1789092709.187796)  can0  181   [8]  21 14 21 14 00 00 00 00
 (1789092709.222469)  can0  701   [1]  05
 (1789092709.237742)  can0  181   [8]  21 14 21 14 00 00 00 00
 (1789092709.287689)  can0  181   [8]  21 14 21 14 00 00 00 00
 (1789092709.337634)  can0  181   [8]  21 14 21 14 00 00 00 00
 (1789092709.387579)  can0  181   [8]  21 14 21 14 00 00 00 00
 (1789092709.437524)  can0  181   [8]  21 14 21 14 00 00 00 00
 (1789092709.471947)  can0  701   [1]  05
 (1789092709.487470)  can0  181   [8]  21 14 21 14 00 00 00 00
 (1789092709.537415)  can0  181   [8]  21 14 21 14 00 00 00 00
 (1789092709.587359)  can0  181   [8]  21 14 21 14 00 00 00 00
 (1789092709.637306)  can0  181   [8]  21 14 21 14 00 00 00 00
 (1789092709.687251)  can0  181   [8]  21 14 21 14 00 00 00 00
 (1789092709.721487)  can0  701   [1]  05
 (1789092709.737196)  can0  181   [8]  21 14 21 14 00 00 00 00
 (1789092709.787141)  can0  181   [8]  21 14 21 14 00 00 00 00
 (1789092709.829546)  can0  601   [8]  40 41 60 00 00 00 00 00
 (1789092709.829847)  can0  581   [8]  43 41 60 00 21 14 21 14
 (1789092709.831527)  can0  601   [8]  40 6C 60 01 00 00 00 00
 (1789092709.831848)  can0  581   [8]  43 6C 60 01 00 00 00 00
 (1789092709.833521)  can0  601   [8]  40 6C 60 02 00 00 00 00
 (1789092709.833844)  can0  581   [8]  43 6C 60 02 00 00 00 00
 (1789092709.835522)  can0  601   [8]  40 6C 60 03 00 00 00 00
 (1789092709.835839)  can0  581   [8]  43 6C 60 03 00 00 00 00
 (1789092709.837086)  can0  181   [8]  21 14 21 14 00 00 00 00
 (1789092709.887032)  can0  181   [8]  21 14 21 14 00 00 00 00
 (1789092709.936978)  can0  181   [8]  21 14 21 14 00 00 00 00
 (1789092709.970964)  can0  701   [1]  05
 (1789092709.986923)  can0  181   [8]  21 14 21 14 00 00 00 00
 (1789092710.036868)  can0  181   [8]  21 14 21 14 00 00 00 00
 (1789092710.086813)  can0  181   [8]  21 14 21 14 00 00 00 00
 (1789092710.136758)  can0  181   [8]  21 14 21 14 00 00 00 00
 (1789092710.186705)  can0  181   [8]  21 14 21 14 00 00 00 00
 (1789092710.220503)  can0  701   [1]  05
 (1789092710.236650)  can0  181   [8]  21 14 21 14 00 00 00 00
 (1789092710.286595)  can0  181   [8]  21 14 21 14 00 00 00 00
 (1789092710.336541)  can0  181   [8]  21 14 21 14 00 00 00 00
 (1789092710.386485)  can0  181   [8]  21 14 21 14 00 00 00 00
 (1789092710.436430)  can0  181   [8]  21 14 21 14 00 00 00 00
 (1789092710.469981)  can0  701   [1]  05
 (1789092710.486375)  can0  181   [8]  21 14 21 14 00 00 00 00
 (1789092710.536322)  can0  181   [8]  21 14 21 14 00 00 00 00
 (1789092710.586267)  can0  181   [8]  21 14 21 14 00 00 00 00
 (1789092710.636212)  can0  181   [8]  21 14 21 14 00 00 00 00
 (1789092710.686157)  can0  181   [8]  21 14 21 14 00 00 00 00
 (1789092710.719520)  can0  701   [1]  05
 (1789092710.736102)  can0  181   [8]  21 14 21 14 00 00 00 00
 (1789092710.786047)  can0  181   [8]  21 14 21 14 00 00 00 00
 (1789092710.835992)  can0  181   [8]  21 14 21 14 00 00 00 00
 (1789092710.836277)  can0  601   [8]  40 41 60 00 00 00 00 00
 (1789092710.836610)  can0  581   [8]  43 41 60 00 21 14 21 14
 (1789092710.837528)  can0  601   [8]  40 6C 60 01 00 00 00 00
 (1789092710.837863)  can0  581   [8]  43 6C 60 01 00 00 00 00
 (1789092710.839522)  can0  601   [8]  40 6C 60 02 00 00 00 00
 (1789092710.839860)  can0  581   [8]  43 6C 60 02 00 00 00 00
 (1789092710.841523)  can0  601   [8]  40 6C 60 03 00 00 00 00
 (1789092710.841855)  can0  581   [8]  43 6C 60 03 00 00 00 00
 (1789092710.885938)  can0  181   [8]  21 14 21 14 00 00 00 00
 (1789092710.935883)  can0  181   [8]  21 14 21 14 00 00 00 00
 (1789092710.968998)  can0  701   [1]  05
 (1789092710.985831)  can0  181   [8]  21 14 21 14 00 00 00 00
 (1789092711.035775)  can0  181   [8]  21 14 21 14 00 00 00 00
 (1789092711.085720)  can0  181   [8]  21 14 21 14 00 00 00 00
 (1789092711.135665)  can0  181   [8]  21 14 21 14 00 00 00 00
 (1789092711.185610)  can0  181   [8]  21 14 21 14 00 00 00 00
 (1789092711.218536)  can0  701   [1]  05
 (1789092711.235555)  can0  181   [8]  21 14 21 14 00 00 00 00
 (1789092711.285500)  can0  181   [8]  21 14 21 14 00 00 00 00
 (1789092711.335447)  can0  181   [8]  21 14 21 14 00 00 00 00
 (1789092711.385392)  can0  181   [8]  21 14 21 14 00 00 00 00
 (1789092711.435338)  can0  181   [8]  21 14 21 14 00 00 00 00
 (1789092711.468014)  can0  701   [1]  05
 (1789092711.485282)  can0  181   [8]  21 14 21 14 00 00 00 00
 (1789092711.535228)  can0  181   [8]  21 14 21 14 00 00 00 00
 (1789092711.585172)  can0  181   [8]  21 14 21 14 00 00 00 00
 (1789092711.635118)  can0  181   [8]  21 14 21 14 00 00 00 00
 (1789092711.685065)  can0  181   [8]  21 14 21 14 00 00 00 00
 (1789092711.717554)  can0  701   [1]  05
 (1789092711.735010)  can0  181   [8]  21 14 21 14 00 00 00 00
 (1789092711.784955)  can0  181   [8]  21 14 21 14 00 00 00 00
 (1789092711.834900)  can0  181   [8]  21 14 21 14 00 00 00 00
 (1789092711.841548)  can0  601   [8]  40 41 60 00 00 00 00 00
 (1789092711.841877)  can0  581   [8]  43 41 60 00 21 14 21 14
 (1789092711.843527)  can0  601   [8]  40 6C 60 01 00 00 00 00
 (1789092711.843878)  can0  581   [8]  43 6C 60 01 00 00 00 00
 (1789092711.845523)  can0  601   [8]  40 6C 60 02 00 00 00 00
 (1789092711.845874)  can0  581   [8]  43 6C 60 02 00 00 00 00
 (1789092711.847524)  can0  601   [8]  40 6C 60 03 00 00 00 00
 (1789092711.847869)  can0  581   [8]  43 6C 60 03 00 00 00 00
 (1789092711.884846)  can0  181   [8]  21 14 21 14 00 00 00 00
 (1789092711.934791)  can0  181   [8]  21 14 21 14 00 00 00 00
 (1789092711.967032)  can0  701   [1]  05
 (1789092711.984736)  can0  181   [8]  21 14 21 14 00 00 00 00
 (1789092712.034681)  can0  181   [8]  21 14 21 14 00 00 00 00
 (1789092712.084626)  can0  181   [8]  21 14 21 14 00 00 00 00
 (1789092712.134571)  can0  181   [8]  21 14 21 14 00 00 00 00
 (1789092712.184519)  can0  181   [8]  21 14 21 14 00 00 00 00
 (1789092712.216566)  can0  701   [1]  05
 (1789092712.234463)  can0  181   [8]  21 14 21 14 00 00 00 00
 (1789092712.284408)  can0  181   [8]  21 14 21 14 00 00 00 00
 (1789092712.334354)  can0  181   [8]  21 14 21 14 00 00 00 00
 (1789092712.384299)  can0  181   [8]  21 14 21 14 00 00 00 00
 (1789092712.434244)  can0  181   [8]  21 14 21 14 00 00 00 00
 (1789092712.466049)  can0  701   [1]  05
 (1789092712.484188)  can0  181   [8]  21 14 21 14 00 00 00 00
 (1789092712.534135)  can0  181   [8]  21 14 21 14 00 00 00 00
 (1789092712.584080)  can0  181   [8]  21 14 21 14 00 00 00 00
 (1789092712.634026)  can0  181   [8]  21 14 21 14 00 00 00 00
 (1789092712.683971)  can0  181   [8]  21 14 21 14 00 00 00 00
 (1789092712.715528)  can0  701   [1]  05
 (1789092712.733916)  can0  181   [8]  21 14 21 14 00 00 00 00
 (1789092712.783861)  can0  181   [8]  21 14 21 14 00 00 00 00
 (1789092712.833808)  can0  181   [8]  21 14 21 14 00 00 00 00
 (1789092712.847545)  can0  601   [8]  40 41 60 00 00 00 00 00
 (1789092712.847890)  can0  581   [8]  43 41 60 00 21 14 21 14
 (1789092712.849527)  can0  601   [8]  40 6C 60 01 00 00 00 00
 (1789092712.849834)  can0  581   [8]  43 6C 60 01 00 00 00 00
 (1789092712.851523)  can0  601   [8]  40 6C 60 02 00 00 00 00
 (1789092712.851830)  can0  581   [8]  43 6C 60 02 00 00 00 00
 (1789092712.853522)  can0  601   [8]  40 6C 60 03 00 00 00 00
 (1789092712.853830)  can0  581   [8]  43 6C 60 03 00 00 00 00
 (1789092712.883753)  can0  181   [8]  21 14 21 14 00 00 00 00
 (1789092712.933697)  can0  181   [8]  21 14 21 14 00 00 00 00
 (1789092712.965065)  can0  701   [1]  05
 (1789092712.983643)  can0  181   [8]  21 14 21 14 00 00 00 00
 (1789092713.033588)  can0  181   [8]  21 14 21 14 00 00 00 00
 (1789092713.083534)  can0  181   [8]  21 14 21 14 00 00 00 00
 (1789092713.133480)  can0  181   [8]  21 14 21 14 00 00 00 00
 (1789092713.183424)  can0  181   [8]  21 14 21 14 00 00 00 00
 (1789092713.214543)  can0  701   [1]  05
 (1789092713.233370)  can0  181   [8]  21 14 21 14 00 00 00 00
 (1789092713.283315)  can0  181   [8]  21 14 21 14 00 00 00 00
 (1789092713.333260)  can0  181   [8]  21 14 21 14 00 00 00 00
 (1789092713.383205)  can0  181   [8]  21 14 21 14 00 00 00 00
 (1789092713.433152)  can0  181   [8]  21 14 21 14 00 00 00 00
 (1789092713.464082)  can0  701   [1]  05
 (1789092713.483097)  can0  181   [8]  21 14 21 14 00 00 00 00
 (1789092713.533042)  can0  181   [8]  21 14 21 14 00 00 00 00
 (1789092713.582987)  can0  181   [8]  21 14 21 14 00 00 00 00
 (1789092713.632932)  can0  181   [8]  21 14 21 14 00 00 00 00
 (1789092713.682877)  can0  181   [8]  21 14 21 14 00 00 00 00
 (1789092713.713560)  can0  701   [1]  05
 (1789092713.732822)  can0  181   [8]  21 14 21 14 00 00 00 00
 (1789092713.782770)  can0  181   [8]  21 14 21 14 00 00 00 00
 (1789092713.832714)  can0  181   [8]  21 14 21 14 00 00 00 00
 (1789092713.853546)  can0  601   [8]  40 41 60 00 00 00 00 00
 (1789092713.853846)  can0  581   [8]  43 41 60 00 21 14 21 14
 (1789092713.855527)  can0  601   [8]  40 6C 60 01 00 00 00 00
 (1789092713.855847)  can0  581   [8]  43 6C 60 01 00 00 00 00
 (1789092713.857523)  can0  601   [8]  40 6C 60 02 00 00 00 00
 (1789092713.857842)  can0  581   [8]  43 6C 60 02 00 00 00 00
 (1789092713.859523)  can0  601   [8]  40 6C 60 03 00 00 00 00
 (1789092713.859838)  can0  581   [8]  43 6C 60 03 00 00 00 00
 (1789092713.882659)  can0  181   [8]  21 14 21 14 00 00 00 00
 (1789092713.932604)  can0  181   [8]  21 14 21 14 00 00 00 00
 (1789092713.963100)  can0  701   [1]  05
 (1789092713.982549)  can0  181   [8]  21 14 21 14 00 00 00 00
 (1789092714.032494)  can0  181   [8]  21 14 21 14 00 00 00 00
 (1789092714.082441)  can0  181   [8]  21 14 21 14 00 00 00 00
 (1789092714.132386)  can0  181   [8]  21 14 21 14 00 00 00 00
 (1789092714.182332)  can0  181   [8]  21 14 21 14 00 00 00 00
 (1789092714.212575)  can0  701   [1]  05
 (1789092714.232276)  can0  181   [8]  21 14 21 14 00 00 00 00
 (1789092714.282222)  can0  181   [8]  21 14 21 14 00 00 00 00
 (1789092714.332166)  can0  181   [8]  21 14 21 14 00 00 00 00
 (1789092714.382112)  can0  181   [8]  21 14 21 14 00 00 00 00
 (1789092714.432059)  can0  181   [8]  21 14 21 14 00 00 00 00
 (1789092714.462115)  can0  701   [1]  05
 (1789092714.482004)  can0  181   [8]  21 14 21 14 00 00 00 00
 (1789092714.531949)  can0  181   [8]  21 14 21 14 00 00 00 00
 (1789092714.581894)  can0  181   [8]  21 14 21 14 00 00 00 00
 (1789092714.631839)  can0  181   [8]  21 14 21 14 00 00 00 00
 (1789092714.681784)  can0  181   [8]  21 14 21 14 00 00 00 00
 (1789092714.711593)  can0  701   [1]  05
 (1789092714.731729)  can0  181   [8]  21 14 21 14 00 00 00 00
 (1789092714.781676)  can0  181   [8]  21 14 21 14 00 00 00 00
 (1789092714.831621)  can0  181   [8]  21 14 21 14 00 00 00 00
 (1789092714.859547)  can0  601   [8]  40 41 60 00 00 00 00 00
 (1789092714.859860)  can0  581   [8]  43 41 60 00 21 14 21 14
 (1789092714.861528)  can0  601   [8]  40 6C 60 01 00 00 00 00
 (1789092714.861863)  can0  581   [8]  43 6C 60 01 00 00 00 00
 (1789092714.863522)  can0  601   [8]  40 6C 60 02 00 00 00 00
 (1789092714.863859)  can0  581   [8]  43 6C 60 02 00 00 00 00
 (1789092714.865523)  can0  601   [8]  40 6C 60 03 00 00 00 00
 (1789092714.865852)  can0  581   [8]  43 6C 60 03 00 00 00 00
 (1789092714.881566)  can0  181   [8]  21 14 21 14 00 00 00 00
 (1789092714.931512)  can0  181   [8]  21 14 21 14 00 00 00 00
 (1789092714.961129)  can0  701   [1]  05
 (1789092714.981457)  can0  181   [8]  21 14 21 14 00 00 00 00
 (1789092715.031402)  can0  181   [8]  21 14 21 14 00 00 00 00
 (1789092715.081347)  can0  181   [8]  21 14 21 14 00 00 00 00
 (1789092715.131294)  can0  181   [8]  21 14 21 14 00 00 00 00
 (1789092715.181239)  can0  181   [8]  21 14 21 14 00 00 00 00
 (1789092715.210611)  can0  701   [1]  05
 (1789092715.231185)  can0  181   [8]  21 14 21 14 00 00 00 00
 (1789092715.281129)  can0  181   [8]  21 14 21 14 00 00 00 00
 (1789092715.331074)  can0  181   [8]  21 14 21 14 00 00 00 00
 (1789092715.381019)  can0  181   [8]  21 14 21 14 00 00 00 00
 (1789092715.430964)  can0  181   [8]  21 14 21 14 00 00 00 00
 (1789092715.460092)  can0  701   [1]  05
 (1789092715.480911)  can0  181   [8]  21 14 21 14 00 00 00 00
 (1789092715.530856)  can0  181   [8]  21 14 21 14 00 00 00 00
 (1789092715.580801)  can0  181   [8]  21 14 21 14 00 00 00 00
 (1789092715.630746)  can0  181   [8]  21 14 21 14 00 00 00 00
 (1789092715.680687)  can0  181   [8]  21 14 21 14 F9 FF 00 00
 (1789092715.709628)  can0  701   [1]  05
 (1789092715.730633)  can0  181   [8]  21 14 21 14 F4 FF 00 00
 (1789092715.780582)  can0  181   [8]  21 14 21 14 EF FF 00 00
 (1789092715.830525)  can0  181   [8]  21 14 21 14 AF FF 00 00
 (1789092715.865550)  can0  601   [8]  40 41 60 00 00 00 00 00
 (1789092715.865875)  can0  581   [8]  43 41 60 00 21 14 21 14
 (1789092715.867527)  can0  601   [8]  40 6C 60 01 00 00 00 00
 (1789092715.867880)  can0  581   [8]  43 6C 60 01 6A FF FF FF
 (1789092715.869523)  can0  601   [8]  40 6C 60 02 00 00 00 00
 (1789092715.869874)  can0  581   [8]  43 6C 60 02 00 00 00 00
 (1789092715.871524)  can0  601   [8]  40 6C 60 03 00 00 00 00
 (1789092715.871867)  can0  581   [8]  43 6C 60 03 63 FF 00 00
 (1789092715.880468)  can0  181   [8]  21 14 21 14 54 FF 00 00
 (1789092715.930414)  can0  181   [8]  21 14 21 14 EE FE 00 00
 (1789092715.959104)  can0  701   [1]  05
 (1789092715.980358)  can0  181   [8]  21 14 21 14 A1 FE 00 00
 (1789092716.030303)  can0  181   [8]  21 14 21 14 75 FE 00 00
 (1789092716.080250)  can0  181   [8]  21 14 21 14 8C FE 00 00
 (1789092716.130198)  can0  181   [8]  21 14 21 14 ED FE 00 00
 (1789092716.180140)  can0  181   [8]  21 14 21 14 48 FF 00 00
 (1789092716.208644)  can0  701   [1]  05
 (1789092716.230090)  can0  181   [8]  21 14 21 14 B3 FF 00 00
 (1789092716.280037)  can0  181   [8]  21 14 21 14 0F 00 00 00
 (1789092716.329981)  can0  181   [8]  21 14 21 14 16 00 00 00
 (1789092716.379925)  can0  181   [8]  21 14 21 14 01 00 00 00
 (1789092716.429870)  can0  181   [8]  21 14 21 14 FB FF 00 00
 (1789092716.458121)  can0  701   [1]  05
 (1789092716.479813)  can0  181   [8]  21 14 21 14 D4 FF 00 00
 (1789092716.529762)  can0  181   [8]  21 14 21 14 AB FF 00 00
 (1789092716.579705)  can0  181   [8]  21 14 21 14 27 FF 00 00
 (1789092716.629652)  can0  181   [8]  21 14 21 14 9D FE 00 00
 (1789092716.679597)  can0  181   [8]  21 14 21 14 10 FE 00 00
 (1789092716.707662)  can0  701   [1]  05
 (1789092716.729539)  can0  181   [8]  21 14 21 14 C9 FD 00 00
 (1789092716.779488)  can0  181   [8]  21 14 21 14 20 FE 00 00
 (1789092716.829434)  can0  181   [8]  21 14 21 14 83 FE 00 00
 (1789092716.872547)  can0  601   [8]  40 41 60 00 00 00 00 00
 (1789092716.872890)  can0  581   [8]  43 41 60 00 21 14 21 14
 (1789092716.874528)  can0  601   [8]  40 6C 60 01 00 00 00 00
 (1789092716.874834)  can0  581   [8]  43 6C 60 01 DA FE FF FF
 (1789092716.876522)  can0  601   [8]  40 6C 60 02 00 00 00 00
 (1789092716.876829)  can0  581   [8]  43 6C 60 02 00 00 00 00
 (1789092716.878522)  can0  601   [8]  40 6C 60 03 00 00 00 00
 (1789092716.878877)  can0  581   [8]  43 6C 60 03 E3 FE 00 00
 (1789092716.879376)  can0  181   [8]  21 14 21 14 E4 FE 00 00
 (1789092716.929323)  can0  181   [8]  21 14 21 14 3F FF 00 00
 (1789092716.957138)  can0  701   [1]  05
 (1789092716.979266)  can0  181   [8]  21 14 21 14 A8 FF 00 00
 (1789092717.029215)  can0  181   [8]  21 14 21 14 14 00 00 00
 (1789092717.079158)  can0  181   [8]  21 14 21 14 E5 FF 00 00
 (1789092717.129104)  can0  181   [8]  21 14 21 14 B9 FF 00 00
 (1789092717.179047)  can0  181   [8]  21 14 21 14 62 FF 00 00
 (1789092717.206678)  can0  701   [1]  05
 (1789092717.228996)  can0  181   [8]  21 14 21 14 D7 FE 00 00
 (1789092717.278939)  can0  181   [8]  21 14 21 14 38 FE 00 00
 (1789092717.328888)  can0  181   [8]  21 14 21 14 C0 FD 00 00
 (1789092717.378829)  can0  181   [8]  21 14 21 14 ED FD 00 00
 (1789092717.428774)  can0  181   [8]  21 14 21 14 49 FE 00 00
 (1789092717.456156)  can0  701   [1]  05
 (1789092717.478721)  can0  181   [8]  21 14 21 14 A7 FE 00 00
 (1789092717.528668)  can0  181   [8]  21 14 21 14 03 FF 00 00
 (1789092717.578609)  can0  181   [8]  21 14 21 14 66 FF 00 00
 (1789092717.628554)  can0  181   [8]  21 14 21 14 CE FF 00 00
 (1789092717.678505)  can0  181   [8]  21 14 21 14 EF FF 00 00
 (1789092717.705693)  can0  701   [1]  05
 (1789092717.728512)  can0  181   [8]  21 14 21 14 AB FF 00 00
 (1789092717.778454)  can0  181   [8]  21 14 21 14 66 FF 00 00
 (1789092717.828403)  can0  181   [8]  21 14 21 14 FC FE 00 00
 (1789092717.878351)  can0  181   [8]  21 14 21 14 6F FE 00 00
 (1789092717.878632)  can0  601   [8]  40 41 60 00 00 00 00 00
 (1789092717.878967)  can0  581   [8]  43 41 60 00 21 14 21 14
 (1789092717.880525)  can0  601   [8]  40 6C 60 01 00 00 00 00
 (1789092717.880840)  can0  581   [8]  43 6C 60 01 68 FE FF FF
 (1789092717.882523)  can0  601   [8]  40 6C 60 02 00 00 00 00
 (1789092717.882840)  can0  581   [8]  43 6C 60 02 00 00 00 00
 (1789092717.884524)  can0  601   [8]  40 6C 60 03 00 00 00 00
 (1789092717.884833)  can0  581   [8]  43 6C 60 03 5F FE 00 00
 (1789092717.928290)  can0  181   [8]  21 14 21 14 35 FE 00 00
 (1789092717.955236)  can0  701   [1]  05
 (1789092717.978236)  can0  181   [8]  21 14 21 14 7F FE 00 00
 (1789092718.028184)  can0  181   [8]  21 14 21 14 E1 FE 00 00
 (1789092718.078132)  can0  181   [8]  21 14 21 14 37 FF 00 00
 (1789092718.128075)  can0  181   [8]  21 14 21 14 A7 FF 00 00
 (1789092718.178022)  can0  181   [8]  21 14 21 14 08 00 00 00
 (1789092718.204713)  can0  701   [1]  05
 (1789092718.227967)  can0  181   [8]  21 14 21 14 10 00 00 00
 (1789092718.277972)  can0  181   [8]  21 14 21 14 03 00 00 00
 (1789092718.327919)  can0  181   [8]  21 14 21 14 FB FF 00 00
 (1789092718.377864)  can0  181   [8]  21 14 21 14 DB FF 00 00
 (1789092718.427807)  can0  181   [8]  21 14 21 14 80 FF 00 00
 (1789092718.454257)  can0  701   [1]  05
 (1789092718.477758)  can0  181   [8]  21 14 21 14 1E FF 00 00
 (1789092718.527697)  can0  181   [8]  21 14 21 14 A4 FE 00 00
 (1789092718.577644)  can0  181   [8]  21 14 21 14 35 FE 00 00
 (1789092718.627589)  can0  181   [8]  21 14 21 14 35 FE 00 00
 (1789092718.677535)  can0  181   [8]  21 14 21 14 92 FE 00 00
 (1789092718.703731)  can0  701   [1]  05
 (1789092718.727478)  can0  181   [8]  21 14 21 14 F5 FE 00 00
 (1789092718.777427)  can0  181   [8]  21 14 21 14 6B FF 00 00
 (1789092718.827370)  can0  181   [8]  21 14 21 14 D0 FF 00 00
 (1789092718.877321)  can0  181   [8]  21 14 21 14 00 00 00 00
 (1789092718.885548)  can0  601   [8]  40 41 60 00 00 00 00 00
 (1789092718.885854)  can0  581   [8]  43 41 60 00 21 14 21 14
 (1789092718.887528)  can0  601   [8]  40 6C 60 01 00 00 00 00
 (1789092718.887858)  can0  581   [8]  43 6C 60 01 0A 00 00 00
 (1789092718.889522)  can0  601   [8]  40 6C 60 02 00 00 00 00
 (1789092718.889853)  can0  581   [8]  43 6C 60 02 00 00 00 00
 (1789092718.891524)  can0  601   [8]  40 6C 60 03 00 00 00 00
 (1789092718.891847)  can0  581   [8]  43 6C 60 03 0C 00 00 00
 (1789092718.927265)  can0  181   [8]  21 14 21 14 FF FF 00 00
 (1789092718.953272)  can0  701   [1]  05
 (1789092718.977205)  can0  181   [8]  21 14 21 14 DE FF 00 00
 (1789092719.027152)  can0  181   [8]  21 14 21 14 A7 FF 00 00
 (1789092719.077100)  can0  181   [8]  21 14 21 14 73 FF 00 00
 (1789092719.127042)  can0  181   [8]  21 14 21 14 1D FF 00 00
 (1789092719.176990)  can0  181   [8]  21 14 21 14 9D FE 00 00
 (1789092719.202746)  can0  701   [1]  05
 (1789092719.226933)  can0  181   [8]  21 14 21 14 1D FE 00 00
 (1789092719.276880)  can0  181   [8]  21 14 21 14 09 FE 00 00
 (1789092719.326825)  can0  181   [8]  21 14 21 14 65 FE 00 00
 (1789092719.376770)  can0  181   [8]  21 14 21 14 C8 FE 00 00
 (1789092719.426717)  can0  181   [8]  21 14 21 14 34 FF 00 00
 (1789092719.452285)  can0  701   [1]  05
 (1789092719.476662)  can0  181   [8]  21 14 21 14 8B FF 00 00
 (1789092719.526611)  can0  181   [8]  21 14 21 14 EF FF 00 00
 (1789092719.576555)  can0  181   [8]  21 14 21 14 18 00 00 00
 (1789092719.626496)  can0  181   [8]  21 14 21 14 D6 FF 00 00
 (1789092719.676440)  can0  181   [8]  21 14 21 14 96 FF 00 00
 (1789092719.701764)  can0  701   [1]  05
 (1789092719.726389)  can0  181   [8]  21 14 21 14 2D FF 00 00
 (1789092719.776335)  can0  181   [8]  21 14 21 14 8F FE 00 00
 (1789092719.826280)  can0  181   [8]  21 14 21 14 EA FD 00 00
 (1789092719.876223)  can0  181   [8]  21 14 21 14 B7 FD 00 00
 (1789092719.891544)  can0  601   [8]  40 41 60 00 00 00 00 00
 (1789092719.891871)  can0  581   [8]  43 41 60 00 21 14 21 14
 (1789092719.893526)  can0  601   [8]  40 6C 60 01 00 00 00 00
 (1789092719.893871)  can0  581   [8]  43 6C 60 01 D4 FD FF FF
 (1789092719.895521)  can0  601   [8]  40 6C 60 02 00 00 00 00
 (1789092719.895868)  can0  581   [8]  43 6C 60 02 00 00 00 00
 (1789092719.897525)  can0  601   [8]  40 6C 60 03 00 00 00 00
 (1789092719.897860)  can0  581   [8]  43 6C 60 03 DB FD 00 00
 (1789092719.926174)  can0  181   [8]  21 14 21 14 0F FE 00 00
 (1789092719.951302)  can0  701   [1]  05
 (1789092719.976113)  can0  181   [8]  21 14 21 14 71 FE 00 00
 (1789092720.026062)  can0  181   [8]  21 14 21 14 CD FE 00 00
 (1789092720.076005)  can0  181   [8]  21 14 21 14 27 FF 00 00
 (1789092720.125948)  can0  181   [8]  21 14 21 14 89 FF 00 00
 (1789092720.175896)  can0  181   [8]  21 14 21 14 03 00 00 00
 (1789092720.200782)  can0  701   [1]  05
 (1789092720.226102)  can0  181   [8]  21 14 21 14 08 00 00 00
 (1789092720.275784)  can0  181   [8]  21 14 21 14 C6 FF 00 00
 (1789092720.325731)  can0  181   [8]  21 14 21 14 80 FF 00 00
 (1789092720.375678)  can0  181   [8]  21 14 21 14 E6 FE 00 00
 (1789092720.425623)  can0  181   [8]  21 14 21 14 2D FE 00 00
 (1789092720.450260)  can0  701   [1]  05
 (1789092720.475566)  can0  181   [8]  21 14 21 14 8B FD 00 00
 (1789092720.525511)  can0  181   [8]  21 14 21 14 A2 FD 00 00
 (1789092720.575460)  can0  181   [8]  21 14 21 14 FF FD 00 00
 (1789092720.625403)  can0  181   [8]  21 14 21 14 5F FE 00 00
 (1789092720.675349)  can0  181   [8]  21 14 21 14 C3 FE 00 00
 (1789092720.699798)  can0  701   [1]  05
 (1789092720.725300)  can0  181   [8]  21 14 21 14 1F FF 00 00
 (1789092720.775242)  can0  181   [8]  21 14 21 14 7F FF 00 00
 (1789092720.825186)  can0  181   [8]  21 14 21 14 DD FF 00 00
 (1789092720.875129)  can0  181   [8]  21 14 21 14 F1 FF 00 00
 (1789092720.896544)  can0  601   [8]  40 41 60 00 00 00 00 00
 (1789092720.896889)  can0  581   [8]  43 41 60 00 21 14 21 14
 (1789092720.898526)  can0  601   [8]  40 6C 60 01 00 00 00 00
 (1789092720.898831)  can0  581   [8]  43 6C 60 01 D1 FF FF FF
 (1789092720.900521)  can0  601   [8]  40 6C 60 02 00 00 00 00
 (1789092720.900828)  can0  581   [8]  43 6C 60 02 00 00 00 00
 (1789092720.902523)  can0  601   [8]  40 6C 60 03 00 00 00 00
 (1789092720.902881)  can0  581   [8]  43 6C 60 03 C9 FF 00 00
 (1789092720.925077)  can0  181   [8]  21 14 21 14 94 FF 00 00
 (1789092720.949277)  can0  701   [1]  05
 (1789092720.975026)  can0  181   [8]  21 14 21 14 0E FF 00 00
 (1789092721.024967)  can0  181   [8]  21 14 21 14 57 FE 00 00
 (1789092721.074910)  can0  181   [8]  21 14 21 14 A6 FD 00 00
 (1789092721.124855)  can0  181   [8]  21 14 21 14 97 FD 00 00
 (1789092721.174800)  can0  181   [8]  21 14 21 14 F6 FD 00 00
 (1789092721.198817)  can0  701   [1]  05
 (1789092721.224749)  can0  181   [8]  21 14 21 14 5D FE 00 00
 (1789092721.274695)  can0  181   [8]  21 14 21 14 C0 FE 00 00
 (1789092721.324642)  can0  181   [8]  21 14 21 14 27 FF 00 00
 (1789092721.374646)  can0  181   [8]  21 14 21 14 7C FF 00 00
 (1789092721.424589)  can0  181   [8]  21 14 21 14 DE FF 00 00
 (1789092721.448295)  can0  701   [1]  05
 (1789092721.474539)  can0  181   [8]  21 14 21 14 0B 00 00 00
 (1789092721.524483)  can0  181   [8]  21 14 21 14 B6 FF 00 00
 (1789092721.574427)  can0  181   [8]  21 14 21 14 50 FF 00 00
 (1789092721.624372)  can0  181   [8]  21 14 21 14 9A FE 00 00
 (1789092721.674322)  can0  181   [8]  21 14 21 14 E8 FD 00 00
 (1789092721.697834)  can0  701   [1]  05
 (1789092721.724266)  can0  181   [8]  21 14 21 14 82 FD 00 00
 (1789092721.774209)  can0  181   [8]  21 14 21 14 BF FD 00 00
 (1789092721.824158)  can0  181   [8]  21 14 21 14 1E FE 00 00
 (1789092721.874101)  can0  181   [8]  21 14 21 14 7F FE 00 00
 (1789092721.899545)  can0  601   [8]  40 41 60 00 00 00 00 00
 (1789092721.899850)  can0  581   [8]  43 41 60 00 21 14 21 14
 (1789092721.901528)  can0  601   [8]  40 6C 60 01 00 00 00 00
 (1789092721.901851)  can0  581   [8]  43 6C 60 01 BA FE FF FF
 (1789092721.903522)  can0  601   [8]  40 6C 60 02 00 00 00 00
 (1789092721.903849)  can0  581   [8]  43 6C 60 02 00 00 00 00
 (1789092721.905523)  can0  601   [8]  40 6C 60 03 00 00 00 00
 (1789092721.905842)  can0  581   [8]  43 6C 60 03 C6 FE 00 00
 (1789092721.924049)  can0  181   [8]  21 14 21 14 FF FE 00 00
 (1789092721.947311)  can0  701   [1]  05
 (1789092721.973990)  can0  181   [8]  21 14 21 14 61 FF 00 00
 (1789092722.023935)  can0  181   [8]  21 14 21 14 D6 FF 00 00
 (1789092722.073886)  can0  181   [8]  21 14 21 14 00 00 00 00
 (1789092722.123827)  can0  181   [8]  21 14 21 14 B9 FF 00 00
 (1789092722.173778)  can0  181   [8]  21 14 21 14 1B FF 00 00
 (1789092722.196847)  can0  701   [1]  05
 (1789092722.223718)  can0  181   [8]  21 14 21 14 54 FE 00 00
 (1789092722.273667)  can0  181   [8]  21 14 21 14 81 FD 00 00
 (1789092722.323608)  can0  181   [8]  21 14 21 14 31 FD 00 00
 (1789092722.373557)  can0  181   [8]  21 14 21 14 81 FD 00 00
 (1789092722.423501)  can0  181   [8]  21 14 21 14 DF FD 00 00
 (1789092722.446330)  can0  701   [1]  05
 (1789092722.473447)  can0  181   [8]  21 14 21 14 41 FE 00 00
 (1789092722.523390)  can0  181   [8]  21 14 21 14 A4 FE 00 00
 (1789092722.573337)  can0  181   [8]  21 14 21 14 03 FF 00 00
 (1789092722.623280)  can0  181   [8]  21 14 21 14 6E FF 00 00
 (1789092722.673231)  can0  181   [8]  21 14 21 14 00 00 00 00
 (1789092722.695809)  can0  701   [1]  05
 (1789092722.723170)  can0  181   [8]  21 14 21 14 C2 FF 00 00
 (1789092722.773119)  can0  181   [8]  21 14 21 14 29 FF 00 00
 (1789092722.823063)  can0  181   [8]  21 14 21 14 70 FE 00 00
 (1789092722.873006)  can0  181   [8]  21 14 21 14 C2 FD 00 00
 (1789092722.905545)  can0  601   [8]  40 41 60 00 00 00 00 00
 (1789092722.905866)  can0  581   [8]  43 41 60 00 21 14 21 14
 (1789092722.907526)  can0  601   [8]  40 6C 60 01 00 00 00 00
 (1789092722.907868)  can0  581   [8]  43 6C 60 01 89 FD FF FF
 (1789092722.909522)  can0  601   [8]  40 6C 60 02 00 00 00 00
 (1789092722.909865)  can0  581   [8]  43 6C 60 02 00 00 00 00
 (1789092722.911523)  can0  601   [8]  40 6C 60 03 00 00 00 00
 (1789092722.911854)  can0  581   [8]  43 6C 60 03 88 FD 00 00
 (1789092722.922954)  can0  181   [8]  21 14 21 14 8C FD 00 00
 (1789092722.945346)  can0  701   [1]  05
 (1789092722.972897)  can0  181   [8]  21 14 21 14 E1 FD 00 00
 (1789092723.022845)  can0  181   [8]  21 14 21 14 48 FE 00 00
 (1789092723.072787)  can0  181   [8]  21 14 21 14 AB FE 00 00
 (1789092723.122738)  can0  181   [8]  21 14 21 14 0E FF 00 00
 (1789092723.172682)  can0  181   [8]  21 14 21 14 71 FF 00 00
 (1789092723.194824)  can0  701   [1]  05
 (1789092723.222624)  can0  181   [8]  21 14 21 14 E7 FF 00 00
 (1789092723.272574)  can0  181   [8]  21 14 21 14 19 00 00 00
 (1789092723.322515)  can0  181   [8]  21 14 21 14 E5 FF 00 00
 (1789092723.372462)  can0  181   [8]  21 14 21 14 9B FF 00 00
 (1789092723.422413)  can0  181   [8]  21 14 21 14 0A FF 00 00
 (1789092723.444364)  can0  701   [1]  05
 (1789092723.472350)  can0  181   [8]  21 14 21 14 66 FE 00 00
 (1789092723.522299)  can0  181   [8]  21 14 21 14 B8 FD 00 00
 (1789092723.572242)  can0  181   [8]  21 14 21 14 8A FD 00 00
 (1789092723.622191)  can0  181   [8]  21 14 21 14 E0 FD 00 00
 (1789092723.672132)  can0  181   [8]  21 14 21 14 44 FE 00 00
 (1789092723.693839)  can0  701   [1]  05
 (1789092723.722079)  can0  181   [8]  21 14 21 14 A4 FE 00 00
 (1789092723.772027)  can0  181   [8]  21 14 21 14 FF FE 00 00
 (1789092723.821969)  can0  181   [8]  21 14 21 14 61 FF 00 00
 (1789092723.871913)  can0  181   [8]  21 14 21 14 B1 FF 00 00
 (1789092723.911544)  can0  601   [8]  40 41 60 00 00 00 00 00
 (1789092723.911881)  can0  581   [8]  43 41 60 00 21 14 21 14
 (1789092723.913527)  can0  601   [8]  40 6C 60 01 00 00 00 00
 (1789092723.913883)  can0  581   [8]  43 6C 60 01 04 00 00 00
 (1789092723.915523)  can0  601   [8]  40 6C 60 02 00 00 00 00
 (1789092723.915878)  can0  581   [8]  43 6C 60 02 00 00 00 00
 (1789092723.917522)  can0  601   [8]  40 6C 60 03 00 00 00 00
 (1789092723.917874)  can0  581   [8]  43 6C 60 03 08 00 00 00
 (1789092723.921863)  can0  181   [8]  21 14 21 14 0A 00 00 00
 (1789092723.943382)  can0  701   [1]  05
 (1789092723.971806)  can0  181   [8]  21 14 21 14 E6 FF 00 00
 (1789092724.021752)  can0  181   [8]  21 14 21 14 AC FF 00 00
 (1789092724.071696)  can0  181   [8]  21 14 21 14 8F FF 00 00
 (1789092724.121642)  can0  181   [8]  21 14 21 14 59 FF 00 00
 (1789092724.171589)  can0  181   [8]  21 14 21 14 14 FF 00 00
 (1789092724.192857)  can0  701   [1]  05
 (1789092724.221534)  can0  181   [8]  21 14 21 14 A7 FE 00 00
 (1789092724.271477)  can0  181   [8]  21 14 21 14 E6 FD 00 00
 (1789092724.321424)  can0  181   [8]  21 14 21 14 E7 FD 00 00
 (1789092724.371371)  can0  181   [8]  21 14 21 14 3F FE 00 00
 (1789092724.421312)  can0  181   [8]  21 14 21 14 9E FE 00 00
 (1789092724.442397)  can0  701   [1]  05
 (1789092724.471263)  can0  181   [8]  21 14 21 14 FF FE 00 00
 (1789092724.521202)  can0  181   [8]  21 14 21 14 52 FF 00 00
 (1789092724.571152)  can0  181   [8]  21 14 21 14 C5 FF 00 00
 (1789092724.621098)  can0  181   [8]  21 14 21 14 26 00 00 00
 (1789092724.671040)  can0  181   [8]  21 14 21 14 DE FF 00 00
 (1789092724.691875)  can0  701   [1]  05
 (1789092724.720991)  can0  181   [8]  21 14 21 14 83 FF 00 00
 (1789092724.770932)  can0  181   [8]  21 14 21 14 C3 FE 00 00
 (1789092724.820875)  can0  181   [8]  21 14 21 14 CD FD 00 00
 (1789092724.870822)  can0  181   [8]  21 14 21 14 78 FD 00 00
 (1789092724.916547)  can0  601   [8]  40 41 60 00 00 00 00 00
 (1789092724.916897)  can0  581   [8]  43 41 60 00 21 14 21 14
 (1789092724.918528)  can0  601   [8]  40 6C 60 01 00 00 00 00
 (1789092724.918839)  can0  581   [8]  43 6C 60 01 CD FD FF FF
 (1789092724.920524)  can0  601   [8]  40 6C 60 02 00 00 00 00
 (1789092724.920835)  can0  581   [8]  43 6C 60 02 00 00 00 00
 (1789092724.921071)  can0  181   [8]  21 14 21 14 D1 FD 00 00
 (1789092724.922523)  can0  601   [8]  40 6C 60 03 00 00 00 00
 (1789092724.922830)  can0  581   [8]  43 6C 60 03 D5 FD 00 00
 (1789092724.941411)  can0  701   [1]  05
 (1789092724.970712)  can0  181   [8]  21 14 21 14 3A FE 00 00
 (1789092725.020661)  can0  181   [8]  21 14 21 14 9D FE 00 00
 (1789092725.070606)  can0  181   [8]  21 14 21 14 FF FE 00 00
 (1789092725.120547)  can0  181   [8]  21 14 21 14 5C FF 00 00
 (1789092725.170496)  can0  181   [8]  21 14 21 14 B9 FF 00 00
 (1789092725.190892)  can0  701   [1]  05
 (1789092725.220442)  can0  181   [8]  21 14 21 14 09 00 00 00
 (1789092725.270388)  can0  181   [8]  21 14 21 14 04 00 00 00
 (1789092725.320334)  can0  181   [8]  21 14 21 14 05 00 00 00
 (1789092725.370280)  can0  181   [8]  21 14 21 14 01 00 00 00
 (1789092725.420224)  can0  181   [8]  21 14 21 14 01 00 00 00
 (1789092725.440375)  can0  701   [1]  05
 (1789092725.470169)  can0  181   [8]  21 14 21 14 01 00 00 00
 (1789092725.520114)  can0  181   [8]  21 14 21 14 01 00 00 00
 (1789092725.570061)  can0  181   [8]  21 14 21 14 01 00 00 00
 (1789092725.620006)  can0  181   [8]  21 14 21 14 01 00 00 00
 (1789092725.669951)  can0  181   [8]  21 14 21 14 01 00 00 00
 (1789092725.689910)  can0  701   [1]  05
 (1789092725.719897)  can0  181   [8]  21 14 21 14 01 00 00 00
 (1789092725.769841)  can0  181   [8]  21 14 21 14 01 00 00 00
 (1789092725.819786)  can0  181   [8]  21 14 21 14 01 00 00 00
 (1789092725.869736)  can0  181   [8]  21 14 21 14 00 00 00 00
 (1789092725.919546)  can0  601   [8]  40 41 60 00 00 00 00 00
 (1789092725.919792)  can0  181   [8]  21 14 21 14 00 00 00 00
 (1789092725.920023)  can0  581   [8]  43 41 60 00 21 14 21 14
 (1789092725.921527)  can0  601   [8]  40 6C 60 01 00 00 00 00
 (1789092725.921862)  can0  581   [8]  43 6C 60 01 00 00 00 00
 (1789092725.923523)  can0  601   [8]  40 6C 60 02 00 00 00 00
 (1789092725.923858)  can0  581   [8]  43 6C 60 02 00 00 00 00
 (1789092725.925522)  can0  601   [8]  40 6C 60 03 00 00 00 00
 (1789092725.925853)  can0  581   [8]  43 6C 60 03 00 00 00 00
 (1789092725.939388)  can0  701   [1]  05
 (1789092725.969626)  can0  181   [8]  21 14 21 14 00 00 00 00
 (1789092726.019571)  can0  181   [8]  21 14 21 14 00 00 00 00
 (1789092726.069516)  can0  181   [8]  21 14 21 14 00 00 00 00
 (1789092726.119461)  can0  181   [8]  21 14 21 14 00 00 00 00
 (1789092726.169406)  can0  181   [8]  21 14 21 14 00 00 00 00
 (1789092726.188928)  can0  701   [1]  05
 (1789092726.219353)  can0  181   [8]  21 14 21 14 00 00 00 00
 (1789092726.269298)  can0  181   [8]  21 14 21 14 00 00 00 00
 (1789092726.319243)  can0  181   [8]  21 14 21 14 00 00 00 00
 (1789092726.369188)  can0  181   [8]  21 14 21 14 00 00 00 00
 (1789092726.419133)  can0  181   [8]  21 14 21 14 00 00 00 00
 (1789092726.438404)  can0  701   [1]  05
 (1789092726.469079)  can0  181   [8]  21 14 21 14 00 00 00 00
 (1789092726.519023)  can0  181   [8]  21 14 21 14 00 00 00 00
 (1789092726.568971)  can0  181   [8]  21 14 21 14 00 00 00 00
 (1789092726.618916)  can0  181   [8]  21 14 21 14 00 00 00 00
 (1789092726.668861)  can0  181   [8]  21 14 21 14 00 00 00 00
 (1789092726.687944)  can0  701   [1]  05
 (1789092726.718807)  can0  181   [8]  21 14 21 14 00 00 00 00
 (1789092726.768751)  can0  181   [8]  21 14 21 14 00 00 00 00
 (1789092726.818696)  can0  181   [8]  21 14 21 14 00 00 00 00
 (1789092726.868702)  can0  181   [8]  21 14 21 14 00 00 00 00
 (1789092726.918648)  can0  181   [8]  21 14 21 14 00 00 00 00
 (1789092726.923663)  can0  601   [8]  40 41 60 00 00 00 00 00
 (1789092726.924002)  can0  581   [8]  43 41 60 00 21 14 21 14
 (1789092726.925621)  can0  601   [8]  40 6C 60 01 00 00 00 00
 (1789092726.925884)  can0  581   [8]  43 6C 60 01 00 00 00 00
 (1789092726.927614)  can0  601   [8]  40 6C 60 02 00 00 00 00
 (1789092726.927938)  can0  581   [8]  43 6C 60 02 00 00 00 00
 (1789092726.929613)  can0  601   [8]  40 6C 60 03 00 00 00 00
 (1789092726.929875)  can0  581   [8]  43 6C 60 03 00 00 00 00
 (1789092726.937480)  can0  701   [1]  05
 (1789092726.968589)  can0  181   [8]  21 14 21 14 00 00 07 00
 (1789092727.018535)  can0  181   [8]  21 14 21 14 00 00 2F 00
 (1789092727.068479)  can0  181   [8]  21 14 21 14 00 00 92 00
 (1789092727.118423)  can0  181   [8]  21 14 21 14 00 00 52 01
 (1789092727.168367)  can0  181   [8]  21 14 21 14 00 00 32 02
 (1789092727.187018)  can0  701   [1]  05
 (1789092727.218315)  can0  181   [8]  21 14 21 14 00 00 35 02
 (1789092727.268257)  can0  181   [8]  21 14 21 14 00 00 DD 01
 (1789092727.318204)  can0  181   [8]  21 14 21 14 00 00 7E 01
 (1789092727.368150)  can0  181   [8]  21 14 21 14 00 00 1D 01
 (1789092727.418095)  can0  181   [8]  21 14 21 14 00 00 C3 00
 (1789092727.436498)  can0  701   [1]  05
 (1789092727.468045)  can0  181   [8]  21 14 21 14 00 00 3D 00
 (1789092727.517990)  can0  181   [8]  21 14 21 14 00 00 F2 FF
 (1789092727.567934)  can0  181   [8]  21 14 21 14 00 00 03 00
 (1789092727.617875)  can0  181   [8]  21 14 21 14 00 00 77 00
 (1789092727.667822)  can0  181   [8]  21 14 21 14 00 00 4C 01
 (1789092727.686035)  can0  701   [1]  05
 (1789092727.717767)  can0  181   [8]  21 14 21 14 00 00 EC 01
 (1789092727.767713)  can0  181   [8]  21 14 21 14 00 00 0A 02
 (1789092727.817656)  can0  181   [8]  21 14 21 14 00 00 B5 01
 (1789092727.867604)  can0  181   [8]  21 14 21 14 00 00 55 01
 (1789092727.917549)  can0  181   [8]  21 14 21 14 00 00 F1 00
 (1789092727.924660)  can0  601   [8]  40 41 60 00 00 00 00 00
 (1789092727.924965)  can0  581   [8]  43 41 60 00 21 14 21 14
 (1789092727.926616)  can0  601   [8]  40 6C 60 01 00 00 00 00
 (1789092727.926969)  can0  581   [8]  43 6C 60 01 00 00 00 00
 (1789092727.928614)  can0  601   [8]  40 6C 60 02 00 00 00 00
 (1789092727.928966)  can0  581   [8]  43 6C 60 02 D8 00 00 00
 (1789092727.930619)  can0  601   [8]  40 6C 60 03 00 00 00 00
 (1789092727.930959)  can0  581   [8]  43 6C 60 03 00 00 D3 00
 (1789092727.935515)  can0  701   [1]  05
 (1789092727.967495)  can0  181   [8]  21 14 21 14 00 00 94 00
 (1789092728.017442)  can0  181   [8]  21 14 21 14 00 00 1B 00
 (1789092728.067388)  can0  181   [8]  21 14 21 14 00 00 F4 FF
 (1789092728.117331)  can0  181   [8]  21 14 21 14 00 00 52 00
 (1789092728.167275)  can0  181   [8]  21 14 21 14 00 00 E7 00
 (1789092728.184996)  can0  701   [1]  05
 (1789092728.217221)  can0  181   [8]  21 14 21 14 00 00 06 02
 (1789092728.267176)  can0  181   [8]  21 14 21 14 00 00 8E 02
 (1789092728.317114)  can0  181   [8]  21 14 21 14 00 00 41 02
 (1789092728.367057)  can0  181   [8]  21 14 21 14 00 00 E8 01
 (1789092728.416999)  can0  181   [8]  21 14 21 14 FC FF 91 01
 (1789092728.434532)  can0  701   [1]  05
 (1789092728.466951)  can0  181   [8]  21 14 21 14 01 00 1F 01
 (1789092728.516836)  can0  181   [8]  21 14 21 14 01 00 94 00
 (1789092728.566840)  can0  181   [8]  21 14 21 14 00 00 31 00
 (1789092728.616786)  can0  181   [8]  21 14 21 14 00 00 F5 FF
 (1789092728.666732)  can0  181   [8]  21 14 21 14 00 00 05 00
 (1789092728.684008)  can0  701   [1]  05
 (1789092728.716676)  can0  181   [8]  21 14 21 14 00 00 5C 00
 (1789092728.766621)  can0  181   [8]  21 14 21 14 00 00 26 01
 (1789092728.816563)  can0  181   [8]  21 14 21 14 00 00 EB 01
 (1789092728.866509)  can0  181   [8]  21 14 21 14 00 00 C4 01
 (1789092728.916461)  can0  181   [8]  21 14 21 14 00 00 6D 01
 (1789092728.926665)  can0  601   [8]  40 41 60 00 00 00 00 00
 (1789092728.926933)  can0  581   [8]  43 41 60 00 21 14 21 14
 (1789092728.928616)  can0  601   [8]  40 6C 60 01 00 00 00 00
 (1789092728.928933)  can0  581   [8]  43 6C 60 01 00 00 00 00
 (1789092728.930622)  can0  601   [8]  40 6C 60 02 00 00 00 00
 (1789092728.930926)  can0  581   [8]  43 6C 60 02 56 01 00 00
 (1789092728.932610)  can0  601   [8]  40 6C 60 03 00 00 00 00
 (1789092728.932864)  can0  581   [8]  43 6C 60 03 00 00 53 01
 (1789092728.933491)  can0  701   [1]  05
 (1789092728.966404)  can0  181   [8]  21 14 21 14 00 00 15 01
 (1789092729.016346)  can0  181   [8]  21 14 21 14 00 00 C6 00
 (1789092729.066295)  can0  181   [8]  21 14 21 14 00 00 69 00
 (1789092729.116241)  can0  181   [8]  21 14 21 14 00 00 ED FF
 (1789092729.166185)  can0  181   [8]  21 14 21 14 00 00 D5 FF
 (1789092729.183026)  can0  701   [1]  05
 (1789092729.216130)  can0  181   [8]  21 14 21 14 00 00 10 00
 (1789092729.266079)  can0  181   [8]  21 14 21 14 00 00 16 00
 (1789092729.316018)  can0  181   [8]  21 14 21 14 00 00 7B 00
 (1789092729.365967)  can0  181   [8]  21 14 21 14 00 00 60 01
 (1789092729.415913)  can0  181   [8]  21 14 21 14 00 00 2C 02
 (1789092729.432567)  can0  701   [1]  05
 (1789092729.465856)  can0  181   [8]  21 14 21 14 00 00 06 02
 (1789092729.515805)  can0  181   [8]  21 14 21 14 00 00 A9 01
 (1789092729.565746)  can0  181   [8]  21 14 21 14 00 00 4D 01
 (1789092729.615694)  can0  181   [8]  21 14 21 14 00 00 ED 00
 (1789092729.665639)  can0  181   [8]  21 14 21 14 00 00 97 00
 (1789092729.682044)  can0  701   [1]  05
 (1789092729.715583)  can0  181   [8]  21 14 21 14 00 00 45 00
 (1789092729.765530)  can0  181   [8]  21 14 21 14 00 00 F5 FF
 (1789092729.815479)  can0  181   [8]  21 14 21 14 00 00 1E 00
 (1789092729.865418)  can0  181   [8]  21 14 21 14 00 00 78 00
 (1789092729.915368)  can0  181   [8]  21 14 21 14 00 00 46 01
 (1789092729.931584)  can0  701   [1]  05
 (1789092729.933659)  can0  601   [8]  40 41 60 00 00 00 00 00
 (1789092729.934005)  can0  581   [8]  43 41 60 00 21 14 21 14
 (1789092729.935614)  can0  601   [8]  40 6C 60 01 00 00 00 00
 (1789092729.935890)  can0  581   [8]  43 6C 60 01 00 00 00 00
 (1789092729.937612)  can0  601   [8]  40 6C 60 02 00 00 00 00
 (1789092729.937939)  can0  581   [8]  43 6C 60 02 B2 01 00 00
 (1789092729.939610)  can0  601   [8]  40 6C 60 03 00 00 00 00
 (1789092729.939879)  can0  581   [8]  43 6C 60 03 00 00 BC 01
 (1789092729.965313)  can0  181   [8]  21 14 21 14 00 00 27 02
 (1789092730.015255)  can0  181   [8]  21 14 21 14 00 00 46 02
 (1789092730.065199)  can0  181   [8]  21 14 21 14 00 00 E9 01
 (1789092730.115149)  can0  181   [8]  21 14 21 14 00 00 8D 01
 (1789092730.165091)  can0  181   [8]  21 14 21 14 00 00 2E 01
 (1789092730.181062)  can0  701   [1]  05
 (1789092730.215037)  can0  181   [8]  21 14 21 14 00 00 C8 00
 (1789092730.264984)  can0  181   [8]  21 14 21 14 00 00 7F 00
 (1789092730.314928)  can0  181   [8]  21 14 21 14 00 00 25 00
 (1789092730.364877)  can0  181   [8]  21 14 21 14 00 00 09 00
 (1789092730.414816)  can0  181   [8]  21 14 21 14 00 00 67 00
 (1789092730.430602)  can0  701   [1]  05
 (1789092730.464765)  can0  181   [8]  21 14 21 14 00 00 3A 01
 (1789092730.514706)  can0  181   [8]  21 14 21 14 00 00 43 02
 (1789092730.564660)  can0  181   [8]  21 14 21 14 00 00 3E 02
 (1789092730.614599)  can0  181   [8]  21 14 21 14 00 00 E4 01
 (1789092730.664546)  can0  181   [8]  21 14 21 14 00 00 8D 01
 (1789092730.680080)  can0  701   [1]  05
 (1789092730.714490)  can0  181   [8]  21 14 21 14 00 00 33 01
 (1789092730.764435)  can0  181   [8]  21 14 21 14 00 00 D2 00
 (1789092730.814381)  can0  181   [8]  21 14 21 14 00 00 7E 00
 (1789092730.864330)  can0  181   [8]  21 14 21 14 00 00 09 00
 (1789092730.914277)  can0  181   [8]  21 14 21 14 00 00 08 00
 (1789092730.929620)  can0  701   [1]  05
 (1789092730.940619)  can0  601   [8]  40 41 60 00 00 00 00 00
 (1789092730.940961)  can0  581   [8]  43 41 60 00 21 14 21 14
 (1789092730.942615)  can0  601   [8]  40 6C 60 01 00 00 00 00
 (1789092730.942960)  can0  581   [8]  43 6C 60 01 00 00 00 00
 (1789092730.944609)  can0  601   [8]  40 6C 60 02 00 00 00 00
 (1789092730.944958)  can0  581   [8]  43 6C 60 02 2C 00 00 00
 (1789092730.946608)  can0  601   [8]  40 6C 60 03 00 00 00 00
 (1789092730.946890)  can0  581   [8]  43 6C 60 03 00 00 2E 00
 (1789092730.964220)  can0  181   [8]  21 14 21 14 00 00 47 00
 (1789092731.014167)  can0  181   [8]  21 14 21 14 00 00 0F 01
 (1789092731.064107)  can0  181   [8]  21 14 21 14 00 00 56 02
 (1789092731.114051)  can0  181   [8]  21 14 21 14 00 00 B7 02
 (1789092731.164002)  can0  181   [8]  21 14 21 14 00 00 61 02
 (1789092731.179099)  can0  701   [1]  05
 (1789092731.213946)  can0  181   [8]  21 14 21 14 00 00 07 02
 (1789092731.263888)  can0  181   [8]  21 14 21 14 00 00 AD 01
 (1789092731.313779)  can0  181   [8]  21 14 21 14 00 00 51 01
 (1789092731.363759)  can0  181   [8]  21 14 21 14 00 00 F5 00
 (1789092731.413731)  can0  181   [8]  21 14 21 14 00 00 81 00
 (1789092731.428637)  can0  701   [1]  05
 (1789092731.463677)  can0  181   [8]  21 14 21 14 00 00 53 00
 (1789092731.513621)  can0  181   [8]  21 14 21 14 00 00 91 00
 (1789092731.563563)  can0  181   [8]  21 14 21 14 00 00 3B 01
 (1789092731.613510)  can0  181   [8]  21 14 21 14 00 00 26 02
 (1789092731.663453)  can0  181   [8]  21 14 21 14 00 00 1E 02
 (1789092731.678114)  can0  701   [1]  05
 (1789092731.713397)  can0  181   [8]  21 14 21 14 00 00 BD 01
 (1789092731.763344)  can0  181   [8]  21 14 21 14 00 00 5F 01
 (1789092731.813291)  can0  181   [8]  21 14 21 14 00 00 03 01
 (1789092731.863234)  can0  181   [8]  21 14 21 14 00 00 A8 00
 (1789092731.913183)  can0  181   [8]  21 14 21 14 00 00 4B 00
 (1789092731.927656)  can0  701   [1]  05
 (1789092731.945660)  can0  601   [8]  40 41 60 00 00 00 00 00
 (1789092731.945972)  can0  581   [8]  43 41 60 00 21 14 21 14
 (1789092731.947616)  can0  601   [8]  40 6C 60 01 00 00 00 00
 (1789092731.947923)  can0  581   [8]  43 6C 60 01 00 00 00 00
 (1789092731.949609)  can0  601   [8]  40 6C 60 02 00 00 00 00
 (1789092731.949860)  can0  581   [8]  43 6C 60 02 FD FF FF FF
 (1789092731.951609)  can0  601   [8]  40 6C 60 03 00 00 00 00
 (1789092731.951907)  can0  581   [8]  43 6C 60 03 00 00 FA FF
 (1789092731.963127)  can0  181   [8]  21 14 21 14 00 00 EE FF
 (1789092732.013075)  can0  181   [8]  21 14 21 14 00 00 04 00
 (1789092732.063017)  can0  181   [8]  21 14 21 14 00 00 69 00
 (1789092732.112961)  can0  181   [8]  21 14 21 14 00 00 2E 01
 (1789092732.162907)  can0  181   [8]  21 14 21 14 00 00 4C 02
 (1789092732.177093)  can0  701   [1]  05
 (1789092732.212852)  can0  181   [8]  21 14 21 14 00 00 9E 02
 (1789092732.262798)  can0  181   [8]  21 14 21 14 00 00 45 02
 (1789092732.312742)  can0  181   [8]  21 14 21 14 00 00 E6 01
 (1789092732.362686)  can0  181   [8]  21 14 21 14 00 00 89 01
 (1789092732.412637)  can0  181   [8]  21 14 21 14 00 00 30 01
 (1789092732.426670)  can0  701   [1]  05
 (1789092732.462577)  can0  181   [8]  21 14 21 14 00 00 D9 00
 (1789092732.512524)  can0  181   [8]  21 14 21 14 00 00 62 00
 (1789092732.562472)  can0  181   [8]  21 14 21 14 00 00 13 00
 (1789092732.612420)  can0  181   [8]  21 14 21 14 00 00 C4 00
 (1789092732.662360)  can0  181   [8]  21 14 21 14 00 00 DC 01
 (1789092732.676149)  can0  701   [1]  05
 (1789092732.712306)  can0  181   [8]  21 14 21 14 00 00 8A 02
 (1789092732.762249)  can0  181   [8]  21 14 21 14 00 00 4F 02
 (1789092732.812195)  can0  181   [8]  21 14 21 14 02 00 F7 01
 (1789092732.862144)  can0  181   [8]  21 14 21 14 00 00 9F 01
 (1789092732.912087)  can0  181   [8]  21 14 21 14 02 00 47 01
 (1789092732.925685)  can0  701   [1]  05
 (1789092732.949665)  can0  601   [8]  40 41 60 00 00 00 00 00
 (1789092732.949995)  can0  581   [8]  43 41 60 00 21 14 21 14
 (1789092732.951616)  can0  601   [8]  40 6C 60 01 00 00 00 00
 (1789092732.951936)  can0  581   [8]  43 6C 60 01 00 00 00 00
 (1789092732.953609)  can0  601   [8]  40 6C 60 02 00 00 00 00
 (1789092732.953931)  can0  581   [8]  43 6C 60 02 FC 00 00 00
 (1789092732.955611)  can0  601   [8]  40 6C 60 03 00 00 00 00
 (1789092732.955923)  can0  581   [8]  43 6C 60 03 00 00 F9 00
 (1789092732.962034)  can0  181   [8]  21 14 21 14 00 00 EF 00
 (1789092733.011980)  can0  181   [8]  21 14 21 14 00 00 9D 00
 (1789092733.061925)  can0  181   [8]  21 14 21 14 00 00 2B 00
 (1789092733.111877)  can0  181   [8]  21 14 21 14 00 00 01 00
 (1789092733.161812)  can0  181   [8]  21 14 21 14 00 00 5A 00
 (1789092733.175167)  can0  701   [1]  05
 (1789092733.211763)  can0  181   [8]  21 14 21 14 00 00 21 01
 (1789092733.261709)  can0  181   [8]  21 14 21 14 00 00 1F 02
 (1789092733.311651)  can0  181   [8]  21 14 21 14 00 00 85 02
 (1789092733.361598)  can0  181   [8]  21 14 21 14 00 00 2E 02
 (1789092733.411541)  can0  181   [8]  21 14 21 14 00 00 D1 01
 (1789092733.424702)  can0  701   [1]  05
 (1789092733.461486)  can0  181   [8]  21 14 21 14 00 00 71 01
 (1789092733.511437)  can0  181   [8]  21 14 21 14 00 00 14 01
 (1789092733.561376)  can0  181   [8]  21 14 21 14 00 00 BB 00
 (1789092733.611328)  can0  181   [8]  21 14 21 14 00 00 58 00
 (1789092733.661276)  can0  181   [8]  21 14 21 14 00 00 FD FF
 (1789092733.674185)  can0  701   [1]  05
 (1789092733.711214)  can0  181   [8]  21 14 21 14 00 00 52 00
 (1789092733.761162)  can0  181   [8]  21 14 21 14 00 00 41 01
 (1789092733.811107)  can0  181   [8]  21 14 21 14 00 00 38 02
 (1789092733.861047)  can0  181   [8]  21 14 21 14 00 00 4B 02
 (1789092733.910997)  can0  181   [8]  21 14 21 14 00 00 F0 01
 (1789092733.923671)  can0  701   [1]  05
 (1789092733.956657)  can0  601   [8]  40 41 60 00 00 00 00 00
 (1789092733.956954)  can0  581   [8]  43 41 60 00 21 14 21 14
 (1789092733.958613)  can0  601   [8]  40 6C 60 01 00 00 00 00
 (1789092733.958894)  can0  581   [8]  43 6C 60 01 00 00 00 00
 (1789092733.960619)  can0  601   [8]  40 6C 60 02 00 00 00 00
 (1789092733.960944)  can0  581   [8]  43 6C 60 02 93 01 00 00
 (1789092733.961181)  can0  181   [8]  21 14 21 14 00 00 93 01
 (1789092733.962611)  can0  601   [8]  40 6C 60 03 00 00 00 00
 (1789092733.962937)  can0  581   [8]  43 6C 60 03 00 00 8F 01
 (1789092734.011074)  can0  181   [8]  21 14 21 14 00 00 34 01
 (1789092734.061020)  can0  181   [8]  21 14 21 14 00 00 CF 00
 (1789092734.110967)  can0  181   [8]  21 14 21 14 00 00 84 00
 (1789092734.160911)  can0  181   [8]  21 14 21 14 00 00 29 00
 (1789092734.173201)  can0  701   [1]  05
 (1789092734.210853)  can0  181   [8]  21 14 21 14 00 00 49 00
 (1789092734.260798)  can0  181   [8]  21 14 21 14 00 00 E2 00
 (1789092734.310746)  can0  181   [8]  21 14 21 14 00 00 F1 01
 (1789092734.360699)  can0  181   [8]  21 14 21 14 00 00 7C 02
 (1789092734.410700)  can0  181   [8]  21 14 21 14 00 00 2F 02
 (1789092734.422685)  can0  701   [1]  05
 (1789092734.460642)  can0  181   [8]  21 14 21 14 00 00 D6 01
 (1789092734.510588)  can0  181   [8]  21 14 21 14 00 00 75 01
 (1789092734.560535)  can0  181   [8]  21 14 21 14 00 00 19 01
 (1789092734.610485)  can0  181   [8]  21 14 21 14 00 00 C6 00
 (1789092734.660427)  can0  181   [8]  21 14 21 14 00 00 60 00
 (1789092734.672220)  can0  701   [1]  05
 (1789092734.710375)  can0  181   [8]  21 14 21 14 00 00 14 00
 (1789092734.760317)  can0  181   [8]  21 14 21 14 00 00 9F 00
 (1789092734.810260)  can0  181   [8]  21 14 21 14 00 00 B4 01
 (1789092734.860207)  can0  181   [8]  21 14 21 14 00 00 8E 02
 (1789092734.910153)  can0  181   [8]  21 14 21 14 00 00 51 02
 (1789092734.921699)  can0  701   [1]  05
 (1789092734.960102)  can0  181   [8]  21 14 21 14 00 00 F8 01
 (1789092734.963657)  can0  601   [8]  40 41 60 00 00 00 00 00
 (1789092734.963960)  can0  581   [8]  43 41 60 00 21 14 21 14
 (1789092734.965612)  can0  601   [8]  40 6C 60 01 00 00 00 00
 (1789092734.965966)  can0  581   [8]  43 6C 60 01 00 00 00 00
 (1789092734.967609)  can0  601   [8]  40 6C 60 02 00 00 00 00
 (1789092734.967960)  can0  581   [8]  43 6C 60 02 E9 01 00 00
 (1789092734.969608)  can0  601   [8]  40 6C 60 03 00 00 00 00
 (1789092734.969954)  can0  581   [8]  43 6C 60 03 00 00 E5 01
 (1789092735.010044)  can0  181   [8]  21 14 21 14 00 00 9E 01
 (1789092735.059993)  can0  181   [8]  21 14 21 14 00 00 48 01
 (1789092735.109933)  can0  181   [8]  21 14 21 14 00 00 F1 00
 (1789092735.159879)  can0  181   [8]  21 14 21 14 00 00 93 00
 (1789092735.171237)  can0  701   [1]  05
 (1789092735.209830)  can0  181   [8]  21 14 21 14 00 00 1D 00
 (1789092735.259774)  can0  181   [8]  21 14 21 14 00 00 1C 00
 (1789092735.309714)  can0  181   [8]  21 14 21 14 00 00 EE 00
 (1789092735.359659)  can0  181   [8]  21 14 21 14 00 00 F4 01
 (1789092735.409610)  can0  181   [8]  21 14 21 14 00 00 78 02
 (1789092735.420716)  can0  701   [1]  05
 (1789092735.459558)  can0  181   [8]  21 14 21 14 00 00 26 02
 (1789092735.509561)  can0  181   [8]  21 14 21 14 00 00 C7 01
 (1789092735.559507)  can0  181   [8]  21 14 21 14 00 00 69 01
 (1789092735.609452)  can0  181   [8]  21 14 21 14 00 00 0E 01
 (1789092735.659398)  can0  181   [8]  21 14 21 14 00 00 A3 00
 (1789092735.670253)  can0  701   [1]  05
 (1789092735.709345)  can0  181   [8]  21 14 21 14 00 00 4B 00
 (1789092735.759291)  can0  181   [8]  21 14 21 14 00 00 03 00
 (1789092735.809234)  can0  181   [8]  21 14 21 14 00 00 2E 00
 (1789092735.859183)  can0  181   [8]  21 14 21 14 00 00 CB 00
 (1789092735.909123)  can0  181   [8]  21 14 21 14 00 00 B4 01
 (1789092735.919733)  can0  701   [1]  05
 (1789092735.959068)  can0  181   [8]  21 14 21 14 00 00 73 02
 (1789092735.970567)  can0  601   [8]  40 41 60 00 00 00 00 00
 (1789092735.970916)  can0  581   [8]  43 41 60 00 21 14 21 14
 (1789092735.972530)  can0  601   [8]  40 6C 60 01 00 00 00 00
 (1789092735.972859)  can0  581   [8]  43 6C 60 01 00 00 00 00
 (1789092735.974524)  can0  601   [8]  40 6C 60 02 00 00 00 00
 (1789092735.974849)  can0  581   [8]  43 6C 60 02 72 02 00 00
 (1789092735.976523)  can0  601   [8]  40 6C 60 03 00 00 00 00
 (1789092735.976846)  can0  581   [8]  43 6C 60 03 00 00 70 02
 (1789092736.008963)  can0  181   [8]  21 14 21 14 00 00 39 02
 (1789092736.058902)  can0  181   [8]  21 14 21 14 00 00 DB 01
 (1789092736.108852)  can0  181   [8]  21 14 21 14 00 00 7F 01
 (1789092736.158794)  can0  181   [8]  21 14 21 14 00 00 26 01
 (1789092736.169214)  can0  701   [1]  05
 (1789092736.208737)  can0  181   [8]  21 14 21 14 00 00 CA 00
 (1789092736.258683)  can0  181   [8]  21 14 21 14 00 00 77 00
 (1789092736.308629)  can0  181   [8]  21 14 21 14 00 00 2D 00
 (1789092736.358575)  can0  181   [8]  21 14 21 14 00 00 F3 FF
 (1789092736.408524)  can0  181   [8]  21 14 21 14 00 00 00 00
 (1789092736.418691)  can0  701   [1]  05
 (1789092736.458470)  can0  181   [8]  21 14 21 14 00 00 FA FF
 (1789092736.508415)  can0  181   [8]  21 14 21 14 00 00 FF FF
 (1789092736.558362)  can0  181   [8]  21 14 21 14 00 00 FF FF
 (1789092736.608307)  can0  181   [8]  21 14 21 14 00 00 FF FF
 (1789092736.658251)  can0  181   [8]  21 14 21 14 00 00 FF FF
 (1789092736.668231)  can0  701   [1]  05
 (1789092736.708196)  can0  181   [8]  21 14 21 14 00 00 FF FF
 (1789092736.758141)  can0  181   [8]  21 14 21 14 00 00 FF FF
 (1789092736.808086)  can0  181   [8]  21 14 21 14 00 00 FF FF
 (1789092736.858034)  can0  181   [8]  21 14 21 14 00 00 FF FF
 (1789092736.907979)  can0  181   [8]  21 14 21 14 00 00 FF FF
 (1789092736.917708)  can0  701   [1]  05
 (1789092736.957925)  can0  181   [8]  21 14 21 14 00 00 FF FF
 (1789092736.975553)  can0  601   [8]  40 41 60 00 00 00 00 00
 (1789092736.975875)  can0  581   [8]  43 41 60 00 21 14 21 14
 (1789092736.977529)  can0  601   [8]  40 6C 60 01 00 00 00 00
 (1789092736.977876)  can0  581   [8]  43 6C 60 01 00 00 00 00
 (1789092736.979522)  can0  601   [8]  40 6C 60 02 00 00 00 00
 (1789092736.979876)  can0  581   [8]  43 6C 60 02 FF FF FF FF
 (1789092736.981524)  can0  601   [8]  40 6C 60 03 00 00 00 00
 (1789092736.981869)  can0  581   [8]  43 6C 60 03 00 00 FF FF
 (1789092737.007868)  can0  181   [8]  21 14 21 14 00 00 FF FF
 (1789092737.057815)  can0  181   [8]  21 14 21 14 00 00 00 00
 (1789092737.107760)  can0  181   [8]  21 14 21 14 00 00 00 00
 (1789092737.157705)  can0  181   [8]  21 14 21 14 00 00 00 00
 (1789092737.167250)  can0  701   [1]  05
 (1789092737.207650)  can0  181   [8]  21 14 21 14 00 00 00 00
 (1789092737.257596)  can0  181   [8]  21 14 21 14 00 00 00 00
 (1789092737.307541)  can0  181   [8]  21 14 21 14 00 00 00 00
 (1789092737.357486)  can0  181   [8]  21 14 21 14 00 00 00 00
 (1789092737.407433)  can0  181   [8]  21 14 21 14 00 00 00 00
 (1789092737.416726)  can0  701   [1]  05
 (1789092737.457378)  can0  181   [8]  21 14 21 14 00 00 00 00
 (1789092737.507324)  can0  181   [8]  21 14 21 14 00 00 00 00
 (1789092737.557268)  can0  181   [8]  21 14 21 14 00 00 00 00
 (1789092737.607214)  can0  181   [8]  21 14 21 14 00 00 00 00
 (1789092737.657158)  can0  181   [8]  21 14 21 14 00 00 00 00
 (1789092737.666266)  can0  701   [1]  05
 (1789092737.707104)  can0  181   [8]  21 14 21 14 00 00 00 00
 (1789092737.757051)  can0  181   [8]  21 14 21 14 00 00 00 00
 (1789092737.806996)  can0  181   [8]  21 14 21 14 00 00 00 00
 (1789092737.856941)  can0  181   [8]  21 14 21 14 00 00 00 00
 (1789092737.906888)  can0  181   [8]  21 14 21 14 00 00 00 00
 (1789092737.915744)  can0  701   [1]  05
 (1789092737.956833)  can0  181   [8]  21 14 21 14 00 00 00 00
 (1789092737.981553)  can0  601   [8]  40 41 60 00 00 00 00 00
 (1789092737.981891)  can0  581   [8]  43 41 60 00 21 14 21 14
 (1789092737.983530)  can0  601   [8]  40 6C 60 01 00 00 00 00
 (1789092737.983837)  can0  581   [8]  43 6C 60 01 00 00 00 00
 (1789092737.985522)  can0  601   [8]  40 6C 60 02 00 00 00 00
 (1789092737.985830)  can0  581   [8]  43 6C 60 02 00 00 00 00
 (1789092737.987523)  can0  601   [8]  40 6C 60 03 00 00 00 00
 (1789092737.987830)  can0  581   [8]  43 6C 60 03 00 00 00 00
 (1789092738.006779)  can0  181   [8]  21 14 21 14 00 00 00 00
 (1789092738.056723)  can0  181   [8]  21 14 21 14 00 00 00 00
 (1789092738.106668)  can0  181   [8]  21 14 21 14 00 00 00 00
 (1789092738.156613)  can0  181   [8]  21 14 21 14 00 00 00 00
 (1789092738.165283)  can0  701   [1]  05
 (1789092738.206558)  can0  181   [8]  21 14 21 14 00 00 00 00
 (1789092738.256504)  can0  181   [8]  21 14 21 14 00 00 00 00
 (1789092738.306449)  can0  181   [8]  21 14 21 14 00 00 00 00
 (1789092738.356396)  can0  181   [8]  21 14 21 14 00 00 00 00
 (1789092738.406341)  can0  181   [8]  21 14 21 14 00 00 00 00
 (1789092738.414762)  can0  701   [1]  05
 (1789092738.456287)  can0  181   [8]  21 14 21 14 00 00 00 00
 (1789092738.506231)  can0  181   [8]  21 14 21 14 00 00 00 00
 (1789092738.556176)  can0  181   [8]  21 14 21 14 00 00 00 00
 (1789092738.606121)  can0  181   [8]  21 14 21 14 00 00 00 00
 (1789092738.656067)  can0  181   [8]  21 14 21 14 00 00 00 00
 (1789092738.664302)  can0  701   [1]  05
 (1789092738.706013)  can0  181   [8]  21 14 21 14 00 00 00 00
 (1789092738.755959)  can0  181   [8]  21 14 21 14 00 00 00 00
 (1789092738.805904)  can0  181   [8]  21 14 21 14 00 00 00 00
 (1789092738.855849)  can0  181   [8]  21 14 21 14 00 00 00 00
 (1789092738.905795)  can0  181   [8]  21 14 21 14 00 00 00 00
 (1789092738.913780)  can0  701   [1]  05
 (1789092738.955740)  can0  181   [8]  21 14 21 14 00 00 00 00
 (1789092738.988549)  can0  601   [8]  40 41 60 00 00 00 00 00
 (1789092738.988848)  can0  581   [8]  43 41 60 00 21 14 21 14
 (1789092738.990528)  can0  601   [8]  40 6C 60 01 00 00 00 00
 (1789092738.990845)  can0  581   [8]  43 6C 60 01 00 00 00 00
 (1789092738.992521)  can0  601   [8]  40 6C 60 02 00 00 00 00
 (1789092738.992841)  can0  581   [8]  43 6C 60 02 00 00 00 00
 (1789092738.994523)  can0  601   [8]  40 6C 60 03 00 00 00 00
 (1789092738.994836)  can0  581   [8]  43 6C 60 03 00 00 00 00
 (1789092739.005684)  can0  181   [8]  21 14 21 14 00 00 00 00
 (1789092739.055631)  can0  181   [8]  21 14 21 14 00 00 00 00
 (1789092739.105577)  can0  181   [8]  21 14 21 14 00 00 00 00
 (1789092739.155522)  can0  181   [8]  21 14 21 14 00 00 00 00
 (1789092739.163320)  can0  701   [1]  05
 (1789092739.205468)  can0  181   [8]  21 14 21 14 00 00 00 00
 (1789092739.255412)  can0  181   [8]  21 14 21 14 00 00 00 00
 (1789092739.305358)  can0  181   [8]  21 14 21 14 00 00 00 00
 (1789092739.355303)  can0  181   [8]  21 14 21 14 00 00 00 00
 (1789092739.405250)  can0  181   [8]  21 14 21 14 00 00 00 00
 (1789092739.412797)  can0  701   [1]  05
 (1789092739.455195)  can0  181   [8]  21 14 21 14 00 00 00 00
 (1789092739.505140)  can0  181   [8]  21 14 21 14 00 00 00 00
 (1789092739.555085)  can0  181   [8]  21 14 21 14 00 00 00 00
 (1789092739.605031)  can0  181   [8]  21 14 21 14 00 00 00 00
 (1789092739.654975)  can0  181   [8]  21 14 21 14 00 00 00 00
 (1789092739.662338)  can0  701   [1]  05
 (1789092739.704922)  can0  181   [8]  21 14 21 14 00 00 00 00
 (1789092739.754867)  can0  181   [8]  21 14 21 14 00 00 00 00
 (1789092739.804812)  can0  181   [8]  21 14 21 14 00 00 00 00
 (1789092739.854758)  can0  181   [8]  21 14 21 14 00 00 00 00
 (1789092739.904703)  can0  181   [8]  21 14 21 14 00 00 00 00
 (1789092739.911814)  can0  701   [1]  05
 (1789092739.954649)  can0  181   [8]  21 14 21 14 00 00 00 00
 (1789092739.991554)  can0  601   [8]  40 41 60 00 00 00 00 00
 (1789092739.991866)  can0  581   [8]  43 41 60 00 21 14 21 14
 (1789092739.993528)  can0  601   [8]  40 6C 60 01 00 00 00 00
 (1789092739.993870)  can0  581   [8]  43 6C 60 01 00 00 00 00
 (1789092739.995524)  can0  601   [8]  40 6C 60 02 00 00 00 00
 (1789092739.995865)  can0  581   [8]  43 6C 60 02 00 00 00 00
 (1789092739.997523)  can0  601   [8]  40 6C 60 03 00 00 00 00
 (1789092739.997861)  can0  581   [8]  43 6C 60 03 00 00 00 00
 (1789092740.004593)  can0  181   [8]  21 14 21 14 00 00 00 00
 (1789092740.054538)  can0  181   [8]  21 14 21 14 00 00 00 00
 (1789092740.104485)  can0  181   [8]  21 14 21 14 00 00 00 00
 (1789092740.154431)  can0  181   [8]  21 14 21 14 00 00 00 00
 (1789092740.161354)  can0  701   [1]  05
 (1789092740.204376)  can0  181   [8]  21 14 21 14 00 00 00 00
 (1789092740.254321)  can0  181   [8]  21 14 21 14 00 00 00 00
 (1789092740.304266)  can0  181   [8]  21 14 21 14 00 00 00 00
 (1789092740.354211)  can0  181   [8]  21 14 21 14 00 00 00 00
 (1789092740.404156)  can0  181   [8]  21 14 21 14 00 00 00 00
 (1789092740.410832)  can0  701   [1]  05
 (1789092740.454103)  can0  181   [8]  21 14 21 14 00 00 00 00
 (1789092740.504048)  can0  181   [8]  21 14 21 14 00 00 00 00
 (1789092740.553994)  can0  181   [8]  21 14 21 14 00 00 00 00
 (1789092740.603939)  can0  181   [8]  21 14 21 14 00 00 00 00
 (1789092740.653884)  can0  181   [8]  21 14 21 14 00 00 00 00
 (1789092740.660372)  can0  701   [1]  05
 (1789092740.703829)  can0  181   [8]  21 14 21 14 00 00 00 00
 (1789092740.753774)  can0  181   [8]  21 14 21 14 00 00 00 00
 (1789092740.803721)  can0  181   [8]  21 14 21 14 00 00 00 00
 (1789092740.853667)  can0  181   [8]  21 14 21 14 00 00 00 00
 (1789092740.903612)  can0  181   [8]  21 14 21 14 00 00 00 00
 (1789092740.909851)  can0  701   [1]  05
 (1789092740.953558)  can0  181   [8]  21 14 21 14 00 00 00 00
 (1789092740.997553)  can0  601   [8]  40 41 60 00 00 00 00 00
 (1789092740.997882)  can0  581   [8]  43 41 60 00 21 14 21 14
 (1789092740.999529)  can0  601   [8]  40 6C 60 01 00 00 00 00
 (1789092740.999884)  can0  581   [8]  43 6C 60 01 00 00 00 00
 (1789092741.001524)  can0  601   [8]  40 6C 60 02 00 00 00 00
 (1789092741.001879)  can0  581   [8]  43 6C 60 02 00 00 00 00
 (1789092741.003502)  can0  181   [8]  21 14 21 14 00 00 00 00
 (1789092741.003743)  can0  601   [8]  40 6C 60 03 00 00 00 00
 (1789092741.004064)  can0  581   [8]  43 6C 60 03 00 00 00 00
 (1789092741.053448)  can0  181   [8]  21 14 21 14 00 00 00 00
 (1789092741.103394)  can0  181   [8]  21 14 21 14 00 00 00 00
 (1789092741.153339)  can0  181   [8]  21 14 21 14 00 00 00 00
 (1789092741.159391)  can0  701   [1]  05
 (1789092741.203285)  can0  181   [8]  21 14 21 14 00 00 00 00
 (1789092741.253230)  can0  181   [8]  21 14 21 14 00 00 00 00
 (1789092741.303174)  can0  181   [8]  21 14 21 14 00 00 00 00
 (1789092741.353119)  can0  181   [8]  21 14 21 14 00 00 00 00
 (1789092741.403066)  can0  181   [8]  21 14 21 14 00 00 00 00
 (1789092741.408868)  can0  701   [1]  05
 (1789092741.453012)  can0  181   [8]  21 14 21 14 00 00 00 00
 (1789092741.502957)  can0  181   [8]  21 14 21 14 00 00 00 00
 (1789092741.552902)  can0  181   [8]  21 14 21 14 00 00 00 00
 (1789092741.602847)  can0  181   [8]  21 14 21 14 00 00 00 00
 (1789092741.652792)  can0  181   [8]  21 14 21 14 00 00 00 00
 (1789092741.658406)  can0  701   [1]  05
 (1789092741.702801)  can0  181   [8]  21 14 21 14 00 00 00 00
 (1789092741.752746)  can0  181   [8]  21 14 21 14 00 00 00 00
 (1789092741.802691)  can0  181   [8]  21 14 21 14 00 00 00 00
 (1789092741.852636)  can0  181   [8]  21 14 21 14 00 00 00 00
 (1789092741.902582)  can0  181   [8]  21 14 21 14 00 00 00 00
 (1789092741.907948)  can0  701   [1]  05
 (1789092741.952527)  can0  181   [8]  21 14 21 14 00 00 00 00
 (1789092742.002474)  can0  181   [8]  21 14 21 14 00 00 00 00
 (1789092742.002764)  can0  601   [8]  40 41 60 00 00 00 00 00
 (1789092742.003089)  can0  581   [8]  43 41 60 00 21 14 21 14
 (1789092742.004529)  can0  601   [8]  40 6C 60 01 00 00 00 00
 (1789092742.004843)  can0  581   [8]  43 6C 60 01 00 00 00 00
 (1789092742.006523)  can0  601   [8]  40 6C 60 02 00 00 00 00
 (1789092742.006838)  can0  581   [8]  43 6C 60 02 00 00 00 00
 (1789092742.008527)  can0  601   [8]  40 6C 60 03 00 00 00 00
 (1789092742.008834)  can0  581   [8]  43 6C 60 03 00 00 00 00
 (1789092742.052419)  can0  181   [8]  21 14 21 14 00 00 00 00
 (1789092742.102364)  can0  181   [8]  21 14 21 14 00 00 00 00
 (1789092742.152309)  can0  181   [8]  21 14 21 14 00 00 00 00
 (1789092742.157427)  can0  701   [1]  05
 (1789092742.202254)  can0  181   [8]  21 14 21 14 00 00 00 00
 (1789092742.252200)  can0  181   [8]  21 14 21 14 00 00 00 00
 (1789092742.302146)  can0  181   [8]  21 14 21 14 00 00 00 00
 (1789092742.352091)  can0  181   [8]  21 14 21 14 00 00 00 00
 (1789092742.402036)  can0  181   [8]  21 14 21 14 00 00 00 00
 (1789092742.406967)  can0  701   [1]  05
 (1789092742.451982)  can0  181   [8]  21 14 21 14 00 00 00 00
 (1789092742.501928)  can0  181   [8]  21 14 21 14 00 00 00 00
 (1789092742.551872)  can0  181   [8]  21 14 21 14 00 00 00 00
 (1789092742.601817)  can0  181   [8]  21 14 21 14 00 00 00 00
 (1789092742.651765)  can0  181   [8]  21 14 21 14 00 00 00 00
 (1789092742.656442)  can0  701   [1]  05
 (1789092742.701709)  can0  181   [8]  21 14 21 14 00 00 00 00
 (1789092742.751654)  can0  181   [8]  21 14 21 14 00 00 00 00
 (1789092742.801600)  can0  181   [8]  21 14 21 14 00 00 00 00
 (1789092742.851545)  can0  181   [8]  21 14 21 14 00 00 00 00
 (1789092742.901490)  can0  181   [8]  21 14 21 14 00 00 00 00
 (1789092742.905982)  can0  701   [1]  05
 (1789092742.951436)  can0  181   [8]  21 14 21 14 00 00 00 00
 (1789092743.001382)  can0  181   [8]  21 14 21 14 00 00 00 00
 (1789092743.006550)  can0  601   [8]  40 41 60 00 00 00 00 00
 (1789092743.006861)  can0  581   [8]  43 41 60 00 21 14 21 14
 (1789092743.008528)  can0  601   [8]  40 6C 60 01 00 00 00 00
 (1789092743.008865)  can0  581   [8]  43 6C 60 01 00 00 00 00
 (1789092743.010521)  can0  601   [8]  40 6C 60 02 00 00 00 00
 (1789092743.010858)  can0  581   [8]  43 6C 60 02 00 00 00 00
 (1789092743.012523)  can0  601   [8]  40 6C 60 03 00 00 00 00
 (1789092743.012854)  can0  581   [8]  43 6C 60 03 00 00 00 00
 (1789092743.051327)  can0  181   [8]  21 14 21 14 00 00 00 00
 (1789092743.101272)  can0  181   [8]  21 14 21 14 00 00 00 00
 (1789092743.151217)  can0  181   [8]  21 14 21 14 00 00 00 00
 (1789092743.155460)  can0  701   [1]  05
 (1789092743.201163)  can0  181   [8]  21 14 21 14 00 00 00 00
 (1789092743.251108)  can0  181   [8]  21 14 21 14 00 00 00 00
 (1789092743.301055)  can0  181   [8]  21 14 21 14 00 00 00 00
 (1789092743.351000)  can0  181   [8]  21 14 21 14 00 00 00 00
 (1789092743.400945)  can0  181   [8]  21 14 21 14 00 00 00 00
 (1789092743.405000)  can0  701   [1]  05
 (1789092743.450890)  can0  181   [8]  21 14 21 14 00 00 00 00
 (1789092743.500835)  can0  181   [8]  21 14 21 14 00 00 00 00
 (1789092743.550780)  can0  181   [8]  21 14 21 14 00 00 00 00
 (1789092743.600725)  can0  181   [8]  21 14 21 14 00 00 00 00
 (1789092743.650673)  can0  181   [8]  21 14 21 14 00 00 00 00
 (1789092743.654479)  can0  701   [1]  05
 (1789092743.700618)  can0  181   [8]  21 14 21 14 00 00 00 00
 (1789092743.750564)  can0  181   [8]  21 14 21 14 00 00 00 00
 (1789092743.800509)  can0  181   [8]  21 14 21 14 00 00 00 00
 (1789092743.850454)  can0  181   [8]  21 14 21 14 00 00 00 00
 (1789092743.900400)  can0  181   [8]  21 14 21 14 00 00 00 00
 (1789092743.904019)  can0  701   [1]  05
 (1789092743.950345)  can0  181   [8]  21 14 21 14 00 00 00 00
 (1789092744.000292)  can0  181   [8]  21 14 21 14 00 00 00 00
 (1789092744.008553)  can0  601   [8]  40 41 60 00 00 00 00 00
 (1789092744.008889)  can0  581   [8]  43 41 60 00 21 14 21 14
 (1789092744.010532)  can0  601   [8]  40 6C 60 01 00 00 00 00
 (1789092744.010888)  can0  581   [8]  43 6C 60 01 00 00 00 00
 (1789092744.012530)  can0  601   [8]  40 6C 60 02 00 00 00 00
 (1789092744.012886)  can0  581   [8]  43 6C 60 02 00 00 00 00
 (1789092744.014530)  can0  601   [8]  40 6C 60 03 00 00 00 00
 (1789092744.014881)  can0  581   [8]  43 6C 60 03 00 00 00 00
 (1789092744.050236)  can0  181   [8]  21 14 21 14 00 00 00 00
 (1789092744.100182)  can0  181   [8]  21 14 21 14 00 00 00 00
 (1789092744.150127)  can0  181   [8]  21 14 21 14 00 00 00 00
 (1789092744.153497)  can0  701   [1]  05
 (1789092744.200072)  can0  181   [8]  21 14 21 14 00 00 00 00
 (1789092744.250018)  can0  181   [8]  21 14 21 14 00 00 00 00
 (1789092744.299964)  can0  181   [8]  21 14 21 14 00 00 00 00
 (1789092744.349913)  can0  181   [8]  21 14 21 14 00 00 00 00
 (1789092744.399858)  can0  181   [8]  21 14 21 14 00 00 00 00
 (1789092744.403039)  can0  701   [1]  05
 (1789092744.449800)  can0  181   [8]  21 14 21 14 00 00 00 00
 (1789092744.499746)  can0  181   [8]  21 14 21 14 00 00 00 00
 (1789092744.549690)  can0  181   [8]  21 14 21 14 00 00 00 00
 (1789092744.599636)  can0  181   [8]  21 14 21 14 00 00 00 00
 (1789092744.649580)  can0  181   [8]  21 14 21 14 00 00 00 00
 (1789092744.652514)  can0  701   [1]  05
 (1789092744.699528)  can0  181   [8]  21 14 21 14 00 00 00 00
 (1789092744.749473)  can0  181   [8]  21 14 21 14 00 00 00 00
 (1789092744.799419)  can0  181   [8]  21 14 21 14 00 00 00 00
 (1789092744.849363)  can0  181   [8]  21 14 21 14 00 00 00 00
 (1789092744.899308)  can0  181   [8]  21 14 21 14 00 00 00 00
 (1789092744.902054)  can0  701   [1]  05
 (1789092744.949253)  can0  181   [8]  21 14 21 14 00 00 00 00
 (1789092744.999199)  can0  181   [8]  21 14 21 14 00 00 00 00
 (1789092745.009569)  can0  601   [8]  40 41 60 00 00 00 00 00
 (1789092745.009916)  can0  581   [8]  43 41 60 00 21 14 21 14
 (1789092745.011537)  can0  601   [8]  40 6C 60 01 00 00 00 00
 (1789092745.011857)  can0  581   [8]  43 6C 60 01 00 00 00 00
 (1789092745.013533)  can0  601   [8]  40 6C 60 02 00 00 00 00
 (1789092745.013853)  can0  581   [8]  43 6C 60 02 00 00 00 00
 (1789092745.015530)  can0  601   [8]  40 6C 60 03 00 00 00 00
 (1789092745.015848)  can0  581   [8]  43 6C 60 03 00 00 00 00
 (1789092745.049144)  can0  181   [8]  21 14 21 14 00 00 00 00
 (1789092745.099089)  can0  181   [8]  21 14 21 14 00 00 00 00
 (1789092745.149095)  can0  181   [8]  21 14 21 14 00 00 00 00
 (1789092745.151590)  can0  701   [1]  05
 (1789092745.199038)  can0  181   [8]  21 14 21 14 00 00 00 00
 (1789092745.248985)  can0  181   [8]  21 14 21 14 00 00 00 00
 (1789092745.298928)  can0  181   [8]  21 14 21 14 00 00 00 00
 (1789092745.348874)  can0  181   [8]  21 14 21 14 00 00 00 00
 (1789092745.398820)  can0  181   [8]  21 14 21 14 00 00 00 00
 (1789092745.401130)  can0  701   [1]  05
 (1789092745.448764)  can0  181   [8]  21 14 21 14 00 00 00 00
 (1789092745.498713)  can0  181   [8]  21 14 21 14 00 00 00 00
 (1789092745.548657)  can0  181   [8]  21 14 21 14 00 00 00 00
 (1789092745.598601)  can0  181   [8]  21 14 21 14 00 00 00 00
 (1789092745.648547)  can0  181   [8]  21 14 21 14 00 00 00 00
 (1789092745.650608)  can0  701   [1]  05
 (1789092745.698492)  can0  181   [8]  21 14 21 14 00 00 00 00
 (1789092745.748438)  can0  181   [8]  21 14 21 14 00 00 00 00
 (1789092745.798385)  can0  181   [8]  21 14 21 14 00 00 00 00
 (1789092745.848329)  can0  181   [8]  21 14 21 14 00 00 00 00
 (1789092745.898274)  can0  181   [8]  21 14 21 14 00 00 00 00
 (1789092745.900148)  can0  701   [1]  05
 (1789092745.948221)  can0  181   [8]  21 14 21 14 00 00 00 00
 (1789092745.998165)  can0  181   [8]  21 14 21 14 00 00 00 00
 (1789092746.015567)  can0  601   [8]  40 41 60 00 00 00 00 00
 (1789092746.015870)  can0  581   [8]  43 41 60 00 21 14 21 14
 (1789092746.017530)  can0  601   [8]  40 6C 60 01 00 00 00 00
 (1789092746.017873)  can0  581   [8]  43 6C 60 01 00 00 00 00
 (1789092746.019522)  can0  601   [8]  40 6C 60 02 00 00 00 00
 (1789092746.019869)  can0  581   [8]  43 6C 60 02 00 00 00 00
 (1789092746.021523)  can0  601   [8]  40 6C 60 03 00 00 00 00
 (1789092746.021865)  can0  581   [8]  43 6C 60 03 00 00 00 00
 (1789092746.048053)  can0  181   [8]  21 14 21 14 00 00 00 00
 (1789092746.097998)  can0  181   [8]  21 14 21 14 00 00 00 00
 (1789092746.147943)  can0  181   [8]  21 14 21 14 00 00 00 00
 (1789092746.149568)  can0  701   [1]  05
 (1789092746.197889)  can0  181   [8]  21 14 21 14 00 00 00 00
 (1789092746.247835)  can0  181   [8]  21 14 21 14 00 00 00 00
 (1789092746.297782)  can0  181   [8]  21 14 21 14 00 00 00 00
 (1789092746.347727)  can0  181   [8]  21 14 21 14 00 00 00 00
 (1789092746.397673)  can0  181   [8]  21 14 21 14 00 00 00 00
 (1789092746.399109)  can0  701   [1]  05
 (1789092746.447675)  can0  181   [8]  21 14 21 14 00 00 00 00
 (1789092746.497620)  can0  181   [8]  21 14 21 14 00 00 00 00
 (1789092746.547565)  can0  181   [8]  21 14 21 14 00 00 00 00
 (1789092746.597510)  can0  181   [8]  21 14 21 14 00 00 00 00
 (1789092746.647457)  can0  181   [8]  21 14 21 14 00 00 00 00
 (1789092746.648646)  can0  701   [1]  05
 (1789092746.697401)  can0  181   [8]  21 14 21 14 00 00 00 00
 (1789092746.747347)  can0  181   [8]  21 14 21 14 00 00 00 00
 (1789092746.797291)  can0  181   [8]  21 14 21 14 00 00 00 00
 (1789092746.847237)  can0  181   [8]  21 14 21 14 00 00 00 00
 (1789092746.897183)  can0  181   [8]  21 14 21 14 00 00 00 00
 (1789092746.898182)  can0  701   [1]  05
 (1789092746.947191)  can0  181   [8]  21 14 21 14 00 00 00 00
 (1789092746.997137)  can0  181   [8]  21 14 21 14 00 00 00 00
 (1789092747.021669)  can0  601   [8]  40 41 60 00 00 00 00 00
 (1789092747.022023)  can0  581   [8]  43 41 60 00 21 14 21 14
 (1789092747.023616)  can0  601   [8]  40 6C 60 01 00 00 00 00
 (1789092747.023961)  can0  581   [8]  43 6C 60 01 00 00 00 00
 (1789092747.025554)  can0  601   [8]  40 6C 60 02 00 00 00 00
 (1789092747.025887)  can0  581   [8]  43 6C 60 02 00 00 00 00
 (1789092747.027609)  can0  601   [8]  40 6C 60 03 00 00 00 00
 (1789092747.027953)  can0  581   [8]  43 6C 60 03 00 00 00 00
 (1789092747.047081)  can0  181   [8]  21 14 21 14 00 00 00 00
 (1789092747.097029)  can0  181   [8]  21 14 21 14 00 00 00 00
 (1789092747.146974)  can0  181   [8]  21 14 21 14 00 00 00 00
 (1789092747.147723)  can0  701   [1]  05
 (1789092747.196917)  can0  181   [8]  21 14 21 14 00 00 00 00
 (1789092747.246863)  can0  181   [8]  21 14 21 14 00 00 00 00
 (1789092747.296809)  can0  181   [8]  21 14 21 14 00 00 00 00
 (1789092747.346754)  can0  181   [8]  21 14 21 14 00 00 00 00
 (1789092747.396700)  can0  181   [8]  21 14 21 14 00 00 00 00
 (1789092747.397203)  can0  701   [1]  05
 (1789092747.446646)  can0  181   [8]  21 14 21 14 00 00 00 00
 (1789092747.496591)  can0  181   [8]  21 14 21 14 00 00 00 00
 (1789092747.546538)  can0  181   [8]  21 14 21 14 00 00 00 00
 (1789092747.596483)  can0  181   [8]  21 14 21 14 00 00 00 00
 (1789092747.646427)  can0  181   [8]  21 14 21 14 00 00 00 00
 (1789092747.646691)  can0  701   [1]  05
 (1789092747.696372)  can0  181   [8]  21 14 21 14 00 00 00 00
 (1789092747.746319)  can0  181   [8]  21 14 21 14 00 00 00 00
 (1789092747.796263)  can0  181   [8]  21 14 21 14 00 00 00 00
 (1789092747.846210)  can0  181   [8]  21 14 21 14 00 00 00 00
 (1789092747.896155)  can0  181   [8]  21 14 21 14 00 00 00 00
 (1789092747.896269)  can0  701   [1]  05
